# vsim -vopt work.AhbCoverPropertyTb -voptargs="+acc=npr" -assertdebug "+UVM_TESTNAME=AhbCoverPropertyTb" "+UVM_VERBOSITY=UVM_MEDIUM" -l AhbCoverPropertyTb/AhbCoverPropertyTb.log -sva -coverage -c -do "log -r /*; add wave -r /*; coverage save -onexit -assert -directive -cvg -codeAll AhbCoverPropertyTb/coverage.ucdb; run -all; exit" -wlf AhbCoverPropertyTb/waveform.wlf 
# Start time: 15:19:03 on Feb 17,2025
# ** Note: (vsim-3813) Design is being optimized due to module recompilation...
# //  Questa Sim
# //  Version 10.6c linux Jul 25 2017
# //
# //  Copyright 1991-2017 Mentor Graphics Corporation
# //  All Rights Reserved.
# //
# //  QuestaSim and its associated documentation contain trade
# //  secrets and commercial or financial information that are the property of
# //  Mentor Graphics Corporation and are privileged, confidential,
# //  and exempt from disclosure under the Freedom of Information Act,
# //  5 U.S.C. Section 552. Furthermore, this information
# //  is prohibited from disclosure under the Trade Secrets Act,
# //  18 U.S.C. Section 1905.
# //
# Loading sv_std.std
# Loading mtiUvm.uvm_pkg
# Loading work.AhbGlobalPackage(fast)
# Loading work.AhbCoverPropertyTb_sv_unit(fast)
# Loading work.AhbCoverPropertyTb(fast)
# Loading work.AhbCoverProperty_sv_unit(fast)
# Loading work.AhbCoverProperty(fast)
# Loading mtiUvm.questa_uvm_pkg(fast)
# Loading /tools/mentor/questasim_10.6c/questasim/uvm-1.1d/linux/uvm_dpi.so
# log -r /*
# ** Error: Unable to lock WLF file "AhbCoverPropertyTb/waveform.wlf". Retrying 1 times, errno 11
# ** Error: Unable to lock WLF file "AhbCoverPropertyTb/waveform.wlf". Retrying 2 times, errno 11
# ** Error: Unable to lock WLF file "AhbCoverPropertyTb/waveform.wlf". Retrying 3 times, errno 11
# ** Error: Cannot lock WLF file: "AhbCoverPropertyTb/waveform.wlf"
#           errno 11: Resource temporarily unavailable.
# ** Warning: (vsim-WLF-5000) WLF file currently in use: AhbCoverPropertyTb/waveform.wlf
#           File in use by: prakhyath  Hostname: FEserver.mirafra.com  ProcessID: 104182
#           Attempting to use alternate WLF file "AhbCoverPropertyTb/wlftTsTZ8t".
# ** Warning: (vsim-WLF-5001) Could not open WLF file: AhbCoverPropertyTb/waveform.wlf
#           Using alternate file: AhbCoverPropertyTb/wlftTsTZ8t
#  add wave -r /*
#  coverage save -onexit -assert -directive -cvg -codeAll AhbCoverPropertyTb/coverage.ucdb
#  run -all
# ----------------------------------------------------------------
# UVM-1.1d
# (C) 2007-2013 Mentor Graphics Corporation
# (C) 2007-2013 Cadence Design Systems, Inc.
# (C) 2006-2013 Synopsys, Inc.
# (C) 2011-2013 Cypress Semiconductor Corp.
# ----------------------------------------------------------------
# 
#   ***********       IMPORTANT RELEASE NOTES         ************
# 
#   You are using a version of the UVM library that has been compiled
#   with `UVM_NO_DEPRECATED undefined.
#   See http://www.eda.org/svdb/view.php?id=3313 for more details.
# 
#   You are using a version of the UVM library that has been compiled
#   with `UVM_OBJECT_MUST_HAVE_CONSTRUCTOR undefined.
#   See http://www.eda.org/svdb/view.php?id=3770 for more details.
# 
#       (Specify +UVM_NO_RELNOTES to turn off this notice)
# 
# UVM_INFO verilog_src/questa_uvm_pkg-1.2/src/questa_uvm_pkg.sv(215) @ 0: reporter [Questa UVM] QUESTA_UVM-1.2.3
# UVM_INFO verilog_src/questa_uvm_pkg-1.2/src/questa_uvm_pkg.sv(217) @ 0: reporter [Questa UVM]  questa_uvm::init(+struct)
# UVM_INFO /fetools/work_area/frontend/prakhyath/ahb_avip_loc/src//hdlTop/AhbCoverProperty.sv(32) @ 0: reporter [AhbCoverProperty] AhbCoverProperty
# UVM_INFO /fetools/work_area/frontend/prakhyath/ahb_avip_loc/src//hvlTop/tb/AhbCoverPropertyTb.sv(99) @ 0: reporter [AhbCoverPropertyTb] write Data Is Equal To Read Data And Both The Address Is Same In Non-Seq State task Started
# Time=0, htrans=xx, hresp=x, hreadyout=x, hsize = xxx , hwdata =xxxxxxxx, hrdata=xxxxxxxx, haddr=xxxxxxxx, hwrite=x, hburst=xxx
# Time=5, htrans=00, hresp=x, hreadyout=x, hsize = 010 , hwdata =xxxxxxxx, hrdata=xxxxxxxx, haddr=xxxxxxxx, hwrite=0, hburst=000
# Time=25, htrans=10, hresp=x, hreadyout=x, hsize = 010 , hwdata =1234abcd, hrdata=xxxxxxxx, haddr=10001004, hwrite=1, hburst=000
# Time=35, htrans=10, hresp=0, hreadyout=x, hsize = 010 , hwdata =1234abcd, hrdata=1234abcd, haddr=10001004, hwrite=0, hburst=000
# ** Info: WRITE ADDRESS AND DATA IS EQUAL TO MASTER READ ADDRESS AND DATA NON SEQ : COVERED
#    Time: 45 ns Started: 35 ns  Scope: AhbCoverPropertyTb.ahbcoverproperty_u.IFWRITEADDRANDDATAISEQUATOREADADDRANDDATANONSEQ File: /fetools/work_area/frontend/prakhyath/ahb_avip_loc/src//hdlTop/AhbCoverProperty.sv Line: 152
# UVM_INFO /fetools/work_area/frontend/prakhyath/ahb_avip_loc/src//hvlTop/tb/AhbCoverPropertyTb.sv(136) @ 55: reporter [AhbCoverPropertyTb] write Data Is Equal To Read Data And Both The Address Is Same In Non-Seq State task ended
# UVM_INFO /fetools/work_area/frontend/prakhyath/ahb_avip_loc/src//hvlTop/tb/AhbCoverPropertyTb.sv(140) @ 55: reporter [AhbCoverPropertyTb] write Data Is Equal To Read Data And Both The Address Is Not Same In Non-Seq State task Started
# Time=65, htrans=00, hresp=0, hreadyout=x, hsize = 010 , hwdata =xxxxxxxx, hrdata=xxxxxxxx, haddr=xxxxxxxx, hwrite=0, hburst=000
# Time=75, htrans=10, hresp=0, hreadyout=x, hsize = 010 , hwdata =a5a5a5a5, hrdata=xxxxxxxx, haddr=00001000, hwrite=1, hburst=000
# Time=85, htrans=10, hresp=0, hreadyout=x, hsize = 010 , hwdata =a5a5a5a5, hrdata=a5a5a5a5, haddr=00002000, hwrite=0, hburst=000
# ** Info: WRITE ADDRESS AND DATA IS NOT EQUAL TO READ ADDRESS AND DATA NON SEQ : COVERED
#    Time: 95 ns Started: 85 ns  Scope: AhbCoverPropertyTb.ahbcoverproperty_u.IFWRITEADDRANDDATAISNOTEQUALTOMASTERREADADDRANDDATANONSEQ File: /fetools/work_area/frontend/prakhyath/ahb_avip_loc/src//hdlTop/AhbCoverProperty.sv Line: 156
# UVM_INFO /fetools/work_area/frontend/prakhyath/ahb_avip_loc/src//hvlTop/tb/AhbCoverPropertyTb.sv(171) @ 105: reporter [AhbCoverPropertyTb] write Data Is Equal To Read Data And Both The Address Is Not Same In Non-Seq State task ended
# UVM_INFO /fetools/work_area/frontend/prakhyath/ahb_avip_loc/src//hvlTop/tb/AhbCoverPropertyTb.sv(178) @ 105: reporter [AhbCoverPropertyTb] write Data Is Equal To Read Data And Both The Address Is Same In Seq State Increment Burst task Started
# Time=115, htrans=00, hresp=0, hreadyout=x, hsize = 010 , hwdata =xxxxxxxx, hrdata=xxxxxxxx, haddr=xxxxxxxx, hwrite=0, hburst=000
# Time=135, htrans=10, hresp=0, hreadyout=x, hsize = 010 , hwdata =1234abcd, hrdata=xxxxxxxx, haddr=10001004, hwrite=1, hburst=001
# Time=145, htrans=11, hresp=0, hreadyout=x, hsize = 010 , hwdata =1234abcd, hrdata=1234abcd, haddr=10001008, hwrite=0, hburst=001
# ** Info: WRITE ADDRESS AND DATA IS NOT EQUAL TO READ ADDRESS AND DATA NON SEQ : COVERED
#    Time: 155 ns Started: 145 ns  Scope: AhbCoverPropertyTb.ahbcoverproperty_u.IFWRITEADDRANDDATAISNOTEQUALTOMASTERREADADDRANDDATANONSEQ File: /fetools/work_area/frontend/prakhyath/ahb_avip_loc/src//hdlTop/AhbCoverProperty.sv Line: 156
# ** Info: WRITE ADDRESS AND DATA IS EQUAL TO MASTER READ ADDRESS AND DATA IN SEQ STATE FOR INCREMENT BURST : COVERED
#    Time: 155 ns Started: 145 ns  Scope: AhbCoverPropertyTb.ahbcoverproperty_u.IFWRITEADDRANDDATAISEQUATOREADADDRANDDATASEQINCR File: /fetools/work_area/frontend/prakhyath/ahb_avip_loc/src//hdlTop/AhbCoverProperty.sv Line: 160
# UVM_INFO /fetools/work_area/frontend/prakhyath/ahb_avip_loc/src//hvlTop/tb/AhbCoverPropertyTb.sv(214) @ 165: reporter [AhbCoverPropertyTb] write Data Is Equal To Read Data And Both The Address Is Same In Seq State Increment Burst task ended
# UVM_INFO /fetools/work_area/frontend/prakhyath/ahb_avip_loc/src//hvlTop/tb/AhbCoverPropertyTb.sv(218) @ 165: reporter [AhbCoverPropertyTb] write Data Is Equal To Read Data And Both The Address Is Not Same In Seq State Increment Burst task Started
# Time=175, htrans=00, hresp=0, hreadyout=x, hsize = 010 , hwdata =xxxxxxxx, hrdata=xxxxxxxx, haddr=xxxxxxxx, hwrite=0, hburst=000
# Time=195, htrans=10, hresp=0, hreadyout=x, hsize = 010 , hwdata =a5a5a5a5, hrdata=xxxxxxxx, haddr=10000000, hwrite=1, hburst=001
# Time=205, htrans=11, hresp=0, hreadyout=x, hsize = 010 , hwdata =5a5a5a5a, hrdata=xxxxxxxx, haddr=10000005, hwrite=1, hburst=001
# Time=215, htrans=11, hresp=0, hreadyout=x, hsize = 010 , hwdata =5a5a5a5a, hrdata=5a5a5a5a, haddr=10000000, hwrite=0, hburst=001
# ** Info: WRITE ADDRESS AND DATA IS NOT EQUAL TO READ ADDRESS AND DATA IN SEQ STATE FOR INCREMENT BURST : COVERED
#    Time: 225 ns Started: 215 ns  Scope: AhbCoverPropertyTb.ahbcoverproperty_u.IFWRITEADDRANDDATAISNOTEQUALTOMASTERREADADDRANDDATASEQINCR File: /fetools/work_area/frontend/prakhyath/ahb_avip_loc/src//hdlTop/AhbCoverProperty.sv Line: 164
# UVM_INFO /fetools/work_area/frontend/prakhyath/ahb_avip_loc/src//hvlTop/tb/AhbCoverPropertyTb.sv(263) @ 235: reporter [AhbCoverPropertyTb] write Data Is Equal To Read Data And Both The Address Is Not Same In Seq State Increment Burst task ended
# UVM_INFO /fetools/work_area/frontend/prakhyath/ahb_avip_loc/src//hvlTop/tb/AhbCoverPropertyTb.sv(268) @ 235: reporter [AhbCoverPropertyTb] write Data Is Equal To Read Data And Both The Address Is Same In Seq State Wrap4 Burst task Started
# Time=245, htrans=11, hresp=0, hreadyout=x, hsize = 010 , hwdata =a5a5a5a5, hrdata=zzzzzzzz, haddr=10000000, hwrite=1, hburst=010
# Time=255, htrans=11, hresp=0, hreadyout=x, hsize = 010 , hwdata =a5a5a5a5, hrdata=zzzzzzzz, haddr=10000004, hwrite=1, hburst=010
# Time=265, htrans=11, hresp=0, hreadyout=x, hsize = 010 , hwdata =5a5a5a5a, hrdata=zzzzzzzz, haddr=10000008, hwrite=1, hburst=010
# Time=275, htrans=11, hresp=0, hreadyout=x, hsize = 010 , hwdata =a5a5a5a5, hrdata=zzzzzzzz, haddr=1000000c, hwrite=1, hburst=010
# Time=285, htrans=11, hresp=0, hreadyout=x, hsize = 010 , hwdata =a5a5a5a5, hrdata=a5a5a5a5, haddr=10000000, hwrite=0, hburst=010
# ** Info: WRITE ADDRESS AND DATA IS EQUAL TO MASTER READ ADDRESS AND DATA IN SEQ STATE FOR WRAP4 BURST : COVERED
#    Time: 295 ns Started: 285 ns  Scope: AhbCoverPropertyTb.ahbcoverproperty_u.IFWRITEADDRANDDATAISEQUATOREADADDRANDDATASEQWRAP4 File: /fetools/work_area/frontend/prakhyath/ahb_avip_loc/src//hdlTop/AhbCoverProperty.sv Line: 168
# UVM_INFO /fetools/work_area/frontend/prakhyath/ahb_avip_loc/src//hvlTop/tb/AhbCoverPropertyTb.sv(301) @ 305: reporter [AhbCoverPropertyTb] write Data Is Equal To Read Data And Both The Address Is Same In Seq State Wrap4 Burst task ended
# UVM_INFO /fetools/work_area/frontend/prakhyath/ahb_avip_loc/src//hvlTop/tb/AhbCoverPropertyTb.sv(305) @ 305: reporter [AhbCoverPropertyTb] write Data Is Equal To Read Data And Both The AddressIs Not Same In Seq State Wrap4 Burst task Started
# Time=315, htrans=11, hresp=0, hreadyout=x, hsize = 010 , hwdata =a5a5a5a5, hrdata=zzzzzzzz, haddr=10000000, hwrite=1, hburst=010
# Time=325, htrans=11, hresp=0, hreadyout=x, hsize = 010 , hwdata =a5a5a5a5, hrdata=zzzzzzzz, haddr=10000004, hwrite=1, hburst=010
# Time=335, htrans=11, hresp=0, hreadyout=x, hsize = 010 , hwdata =5a5a5a5a, hrdata=zzzzzzzz, haddr=10000008, hwrite=1, hburst=010
# Time=345, htrans=11, hresp=0, hreadyout=x, hsize = 010 , hwdata =a5a5a5a5, hrdata=zzzzzzzz, haddr=1000000c, hwrite=1, hburst=010
# Time=355, htrans=11, hresp=0, hreadyout=x, hsize = 010 , hwdata =a5a5a5a5, hrdata=a5a5a5a5, haddr=00000000, hwrite=0, hburst=010
# ** Info: WRITE ADDRESS AND DATA IS NOT EQUAL TO READ ADDRESS AND DATA IN SEQ STATE FOR WRAP4 BURST : COVERED
#    Time: 365 ns Started: 355 ns  Scope: AhbCoverPropertyTb.ahbcoverproperty_u.IFWRITEADDRANDDATAISNOTEQUALTOMASTERREADADDRANDDATASEQWRAP4 File: /fetools/work_area/frontend/prakhyath/ahb_avip_loc/src//hdlTop/AhbCoverProperty.sv Line: 172
# UVM_INFO /fetools/work_area/frontend/prakhyath/ahb_avip_loc/src//hvlTop/tb/AhbCoverPropertyTb.sv(338) @ 375: reporter [AhbCoverPropertyTb] write Data Is Equal To Read Data And Both The AddressIs Not Same In Seq State Wrap4 Burst task ended
# UVM_INFO /fetools/work_area/frontend/prakhyath/ahb_avip_loc/src//hvlTop/tb/AhbCoverPropertyTb.sv(343) @ 375: reporter [AhbCoverPropertyTb] write Data Is Equal To Read Data And Both The Address Is Same In Seq State Increment4 Burst task Started
# Time=385, htrans=00, hresp=0, hreadyout=x, hsize = 010 , hwdata =xxxxxxxx, hrdata=xxxxxxxx, haddr=xxxxxxxx, hwrite=0, hburst=000
# Time=395, htrans=10, hresp=0, hreadyout=x, hsize = 010 , hwdata =1234abcd, hrdata=xxxxxxxx, haddr=10001004, hwrite=1, hburst=011
# Time=405, htrans=11, hresp=0, hreadyout=x, hsize = 010 , hwdata =1234abcd, hrdata=1234abcd, haddr=10001008, hwrite=0, hburst=011
# ** Info: WRITE ADDRESS AND DATA IS NOT EQUAL TO READ ADDRESS AND DATA NON SEQ : COVERED
#    Time: 415 ns Started: 405 ns  Scope: AhbCoverPropertyTb.ahbcoverproperty_u.IFWRITEADDRANDDATAISNOTEQUALTOMASTERREADADDRANDDATANONSEQ File: /fetools/work_area/frontend/prakhyath/ahb_avip_loc/src//hdlTop/AhbCoverProperty.sv Line: 156
# Time=415, htrans=11, hresp=0, hreadyout=x, hsize = 010 , hwdata =1234abcd, hrdata=1234abcd, haddr=1000100c, hwrite=1, hburst=011
# Time=425, htrans=11, hresp=0, hreadyout=x, hsize = 010 , hwdata =1234abcd, hrdata=1234abcd, haddr=10001010, hwrite=1, hburst=011
# UVM_INFO /fetools/work_area/frontend/prakhyath/ahb_avip_loc/src//hvlTop/tb/AhbCoverPropertyTb.sv(394) @ 445: reporter [AhbCoverPropertyTb] write Data Is Equal To Read Data And Both The Address Is Same In Seq State Increment4 Burst task ended
# UVM_INFO /fetools/work_area/frontend/prakhyath/ahb_avip_loc/src//hvlTop/tb/AhbCoverPropertyTb.sv(398) @ 445: reporter [AhbCoverPropertyTb] write Data Is Equal To Read Data And Both The Address Is Not Same In Seq State Increment4 Burst task Started
# Time=455, htrans=00, hresp=0, hreadyout=x, hsize = 010 , hwdata =xxxxxxxx, hrdata=xxxxxxxx, haddr=xxxxxxxx, hwrite=0, hburst=000
# Time=475, htrans=10, hresp=0, hreadyout=x, hsize = 001 , hwdata =1234abcd, hrdata=xxxxxxxx, haddr=10001004, hwrite=1, hburst=011
# Time=485, htrans=11, hresp=0, hreadyout=x, hsize = 001 , hwdata =1234abcd, hrdata=1234abcd, haddr=10001004, hwrite=0, hburst=011
# ** Info: WRITE ADDRESS AND DATA IS EQUAL TO MASTER READ ADDRESS AND DATA NON SEQ : COVERED
#    Time: 495 ns Started: 485 ns  Scope: AhbCoverPropertyTb.ahbcoverproperty_u.IFWRITEADDRANDDATAISEQUATOREADADDRANDDATANONSEQ File: /fetools/work_area/frontend/prakhyath/ahb_avip_loc/src//hdlTop/AhbCoverProperty.sv Line: 152
# UVM_INFO /fetools/work_area/frontend/prakhyath/ahb_avip_loc/src//hvlTop/tb/AhbCoverPropertyTb.sv(434) @ 505: reporter [AhbCoverPropertyTb] write Data Is Equal To Read Data And Both The Address Is Not Same In Seq State Increment4 Burst task ended
# UVM_INFO /fetools/work_area/frontend/prakhyath/ahb_avip_loc/src//hvlTop/tb/AhbCoverPropertyTb.sv(440) @ 505: reporter [AhbCoverPropertyTb] write Data Is Equal To Read Data And Both The Address Is Same In Seq State Wrap8 Burst task Started
# Time=515, htrans=11, hresp=0, hreadyout=x, hsize = 001 , hwdata =a5a5a5a5, hrdata=zzzzzzzz, haddr=10000000, hwrite=1, hburst=100
# Time=525, htrans=11, hresp=0, hreadyout=x, hsize = 001 , hwdata =a5a5a5a5, hrdata=zzzzzzzz, haddr=10000004, hwrite=1, hburst=100
# Time=535, htrans=11, hresp=0, hreadyout=x, hsize = 001 , hwdata =5a5a5a5a, hrdata=zzzzzzzz, haddr=10000008, hwrite=1, hburst=100
# Time=545, htrans=11, hresp=0, hreadyout=x, hsize = 001 , hwdata =a5a5a5a5, hrdata=zzzzzzzz, haddr=1000000c, hwrite=1, hburst=100
# Time=555, htrans=11, hresp=0, hreadyout=x, hsize = 001 , hwdata =5a5a5a5a, hrdata=zzzzzzzz, haddr=10000010, hwrite=1, hburst=100
# Time=565, htrans=11, hresp=0, hreadyout=x, hsize = 001 , hwdata =a5a5a5a5, hrdata=zzzzzzzz, haddr=10000014, hwrite=1, hburst=100
# Time=575, htrans=11, hresp=0, hreadyout=x, hsize = 001 , hwdata =5a5a5a5a, hrdata=zzzzzzzz, haddr=10000018, hwrite=1, hburst=100
# Time=585, htrans=11, hresp=0, hreadyout=x, hsize = 001 , hwdata =a5a5a5a5, hrdata=zzzzzzzz, haddr=1000001c, hwrite=1, hburst=100
# Time=595, htrans=11, hresp=0, hreadyout=x, hsize = 001 , hwdata =a5a5a5a5, hrdata=a5a5a5a5, haddr=10000000, hwrite=0, hburst=100
# ** Info: WRITE ADDRESS AND DATA IS EQUAL TO MASTER READ ADDRESS AND DATA IN SEQ STATE FOR WRAP8 BURST : COVERED
#    Time: 605 ns Started: 595 ns  Scope: AhbCoverPropertyTb.ahbcoverproperty_u.IFWRITEADDRANDDATAISEQUATOREADADDRANDDATASEQWRAP8 File: /fetools/work_area/frontend/prakhyath/ahb_avip_loc/src//hdlTop/AhbCoverProperty.sv Line: 184
# UVM_INFO /fetools/work_area/frontend/prakhyath/ahb_avip_loc/src//hvlTop/tb/AhbCoverPropertyTb.sv(493) @ 615: reporter [AhbCoverPropertyTb] write Data Is Equal To Read Data And Both The Address Is Same In Seq State Wrap8 Burst task ended
# UVM_INFO /fetools/work_area/frontend/prakhyath/ahb_avip_loc/src//hvlTop/tb/AhbCoverPropertyTb.sv(497) @ 615: reporter [AhbCoverPropertyTb] write Data Is Equal To Read Data And Both The AddressIs Not Same In Seq State Wrap8 Burst task Started
# Time=625, htrans=11, hresp=0, hreadyout=x, hsize = 001 , hwdata =a5a5a5a5, hrdata=zzzzzzzz, haddr=10000000, hwrite=1, hburst=100
# Time=635, htrans=11, hresp=0, hreadyout=x, hsize = 001 , hwdata =a5a5a5a5, hrdata=zzzzzzzz, haddr=10000004, hwrite=1, hburst=100
# Time=645, htrans=11, hresp=0, hreadyout=x, hsize = 001 , hwdata =5a5a5a5a, hrdata=zzzzzzzz, haddr=10000008, hwrite=1, hburst=100
# Time=655, htrans=11, hresp=0, hreadyout=x, hsize = 001 , hwdata =a5a5a5a5, hrdata=zzzzzzzz, haddr=1000000c, hwrite=1, hburst=100
# Time=665, htrans=11, hresp=0, hreadyout=x, hsize = 001 , hwdata =5a5a5a5a, hrdata=zzzzzzzz, haddr=10000010, hwrite=1, hburst=100
# Time=675, htrans=11, hresp=0, hreadyout=x, hsize = 001 , hwdata =a5a5a5a5, hrdata=zzzzzzzz, haddr=10000014, hwrite=1, hburst=100
# Time=685, htrans=11, hresp=0, hreadyout=x, hsize = 001 , hwdata =5a5a5a5a, hrdata=zzzzzzzz, haddr=10000018, hwrite=1, hburst=100
# Time=695, htrans=11, hresp=0, hreadyout=x, hsize = 001 , hwdata =a5a5a5a5, hrdata=zzzzzzzz, haddr=1000001c, hwrite=1, hburst=100
# Time=705, htrans=11, hresp=0, hreadyout=x, hsize = 001 , hwdata =a5a5a5a5, hrdata=a5a5a5a5, haddr=00000000, hwrite=0, hburst=100
# ** Info: WRITE ADDRESS AND DATA IS NOT EQUAL TO READ ADDRESS AND DATA IN SEQ STATE FOR WRAP8 BURST : COVERED
#    Time: 715 ns Started: 705 ns  Scope: AhbCoverPropertyTb.ahbcoverproperty_u.IFWRITEADDRANDDATAISNOTEQUALTOMASTERREADADDRANDDATASEQWRAP8 File: /fetools/work_area/frontend/prakhyath/ahb_avip_loc/src//hdlTop/AhbCoverProperty.sv Line: 188
# UVM_INFO /fetools/work_area/frontend/prakhyath/ahb_avip_loc/src//hvlTop/tb/AhbCoverPropertyTb.sv(550) @ 725: reporter [AhbCoverPropertyTb] write Data Is Equal To Read Data And Both The AddressIs Not Same In Seq State Wrap8 Burst task ended
# UVM_INFO /fetools/work_area/frontend/prakhyath/ahb_avip_loc/src//hvlTop/tb/AhbCoverPropertyTb.sv(556) @ 725: reporter [AhbCoverPropertyTb] write Data Is Equal To Read Data And Both The Address Is Same In Seq State Increment8 Burst task Started
# Time=735, htrans=00, hresp=0, hreadyout=x, hsize = 010 , hwdata =xxxxxxxx, hrdata=xxxxxxxx, haddr=xxxxxxxx, hwrite=0, hburst=000
# Time=755, htrans=10, hresp=0, hreadyout=x, hsize = 010 , hwdata =1234abcd, hrdata=xxxxxxxx, haddr=10001004, hwrite=1, hburst=111
# Time=765, htrans=10, hresp=0, hreadyout=x, hsize = 010 , hwdata =1234abcd, hrdata=xxxxxxxx, haddr=10001008, hwrite=1, hburst=111
# Time=775, htrans=10, hresp=0, hreadyout=x, hsize = 010 , hwdata =1234abcd, hrdata=xxxxxxxx, haddr=1000100c, hwrite=1, hburst=111
# Time=785, htrans=10, hresp=0, hreadyout=x, hsize = 010 , hwdata =1234abcd, hrdata=xxxxxxxx, haddr=10001010, hwrite=1, hburst=111
# Time=795, htrans=10, hresp=0, hreadyout=x, hsize = 010 , hwdata =1234abcd, hrdata=xxxxxxxx, haddr=10001014, hwrite=1, hburst=111
# Time=805, htrans=10, hresp=0, hreadyout=x, hsize = 010 , hwdata =1234abcd, hrdata=xxxxxxxx, haddr=10001018, hwrite=1, hburst=111
# Time=815, htrans=10, hresp=0, hreadyout=x, hsize = 010 , hwdata =1234abcd, hrdata=xxxxxxxx, haddr=1000101c, hwrite=1, hburst=111
# Time=825, htrans=10, hresp=0, hreadyout=x, hsize = 010 , hwdata =1234abcd, hrdata=xxxxxxxx, haddr=10001020, hwrite=0, hburst=111
# UVM_INFO /fetools/work_area/frontend/prakhyath/ahb_avip_loc/src//hvlTop/tb/AhbCoverPropertyTb.sv(628) @ 845: reporter [AhbCoverPropertyTb] write Data Is Equal To Read Data And Both The Address Is Same In Seq State Increment8 Burst task ended
# UVM_INFO /fetools/work_area/frontend/prakhyath/ahb_avip_loc/src//hvlTop/tb/AhbCoverPropertyTb.sv(632) @ 845: reporter [AhbCoverPropertyTb] write Data Is Equal To Read Data And Both The Address Is Not Same In Seq State Increment8 Burst task Started
# Time=855, htrans=00, hresp=0, hreadyout=x, hsize = 010 , hwdata =xxxxxxxx, hrdata=xxxxxxxx, haddr=xxxxxxxx, hwrite=0, hburst=000
# Time=875, htrans=10, hresp=0, hreadyout=x, hsize = 001 , hwdata =1234abcd, hrdata=xxxxxxxx, haddr=10001004, hwrite=1, hburst=101
# Time=885, htrans=11, hresp=0, hreadyout=x, hsize = 001 , hwdata =1234abcd, hrdata=1234abcd, haddr=10001000, hwrite=0, hburst=011
# ** Info: WRITE ADDRESS AND DATA IS NOT EQUAL TO READ ADDRESS AND DATA NON SEQ : COVERED
#    Time: 895 ns Started: 885 ns  Scope: AhbCoverPropertyTb.ahbcoverproperty_u.IFWRITEADDRANDDATAISNOTEQUALTOMASTERREADADDRANDDATANONSEQ File: /fetools/work_area/frontend/prakhyath/ahb_avip_loc/src//hdlTop/AhbCoverProperty.sv Line: 156
# UVM_INFO /fetools/work_area/frontend/prakhyath/ahb_avip_loc/src//hvlTop/tb/AhbCoverPropertyTb.sv(668) @ 905: reporter [AhbCoverPropertyTb] write Data Is Equal To Read Data And Both The Address Is Not Same In Seq State Increment8 Burst task ended
# UVM_INFO /fetools/work_area/frontend/prakhyath/ahb_avip_loc/src//hvlTop/tb/AhbCoverPropertyTb.sv(675) @ 905: reporter [AhbCoverPropertyTb] write Data Is Equal To Read Data And Both The Address Is Same In Seq State Wrap16 Burst task Started
# Time=915, htrans=11, hresp=0, hreadyout=x, hsize = 001 , hwdata =a5a5a5a5, hrdata=zzzzzzzz, haddr=10000000, hwrite=1, hburst=110
# Time=925, htrans=11, hresp=0, hreadyout=x, hsize = 001 , hwdata =a5a5a5a5, hrdata=zzzzzzzz, haddr=10000004, hwrite=1, hburst=110
# Time=935, htrans=11, hresp=0, hreadyout=x, hsize = 001 , hwdata =5a5a5a5a, hrdata=zzzzzzzz, haddr=10000008, hwrite=1, hburst=110
# Time=945, htrans=11, hresp=0, hreadyout=x, hsize = 001 , hwdata =a5a5a5a5, hrdata=zzzzzzzz, haddr=1000000c, hwrite=1, hburst=110
# Time=955, htrans=11, hresp=0, hreadyout=x, hsize = 001 , hwdata =5a5a5a5a, hrdata=zzzzzzzz, haddr=10000010, hwrite=1, hburst=110
# Time=965, htrans=11, hresp=0, hreadyout=x, hsize = 001 , hwdata =a5a5a5a5, hrdata=zzzzzzzz, haddr=10000014, hwrite=1, hburst=110
# Time=975, htrans=11, hresp=0, hreadyout=x, hsize = 001 , hwdata =5a5a5a5a, hrdata=zzzzzzzz, haddr=10000018, hwrite=1, hburst=110
# Time=985, htrans=11, hresp=0, hreadyout=x, hsize = 001 , hwdata =a5a5a5a5, hrdata=zzzzzzzz, haddr=1000001c, hwrite=1, hburst=110
# Time=995, htrans=11, hresp=0, hreadyout=x, hsize = 001 , hwdata =5a5a5a5a, hrdata=zzzzzzzz, haddr=10000020, hwrite=1, hburst=110
# Time=1005, htrans=11, hresp=0, hreadyout=x, hsize = 001 , hwdata =a5a5a5a5, hrdata=zzzzzzzz, haddr=10000024, hwrite=1, hburst=110
# Time=1015, htrans=11, hresp=0, hreadyout=x, hsize = 001 , hwdata =5a5a5a5a, hrdata=zzzzzzzz, haddr=10000028, hwrite=1, hburst=110
# Time=1025, htrans=11, hresp=0, hreadyout=x, hsize = 001 , hwdata =a5a5a5a5, hrdata=zzzzzzzz, haddr=1000002c, hwrite=1, hburst=110
# Time=1035, htrans=11, hresp=0, hreadyout=x, hsize = 001 , hwdata =5a5a5a5a, hrdata=zzzzzzzz, haddr=10000030, hwrite=1, hburst=110
# Time=1045, htrans=11, hresp=0, hreadyout=x, hsize = 001 , hwdata =a5a5a5a5, hrdata=zzzzzzzz, haddr=10000034, hwrite=1, hburst=110
# Time=1055, htrans=11, hresp=0, hreadyout=x, hsize = 001 , hwdata =5a5a5a5a, hrdata=zzzzzzzz, haddr=10000038, hwrite=1, hburst=110
# Time=1065, htrans=11, hresp=0, hreadyout=x, hsize = 001 , hwdata =a5a5a5a5, hrdata=zzzzzzzz, haddr=1000003c, hwrite=1, hburst=110
# Time=1075, htrans=11, hresp=0, hreadyout=x, hsize = 001 , hwdata =a5a5a5a5, hrdata=a5a5a5a5, haddr=10000000, hwrite=0, hburst=110
# ** Info: WRITE ADDRESS AND DATA IS EQUAL TO MASTER READ ADDRESS AND DATA IN SEQ STATE FOR WRAP16 BURST : COVERED
#    Time: 1085 ns Started: 1075 ns  Scope: AhbCoverPropertyTb.ahbcoverproperty_u.IFWRITEADDRANDDATAISEQUATOREADADDRANDDATASEQWRAP16 File: /fetools/work_area/frontend/prakhyath/ahb_avip_loc/src//hdlTop/AhbCoverProperty.sv Line: 200
# UVM_INFO /fetools/work_area/frontend/prakhyath/ahb_avip_loc/src//hvlTop/tb/AhbCoverPropertyTb.sv(766) @ 1095: reporter [AhbCoverPropertyTb] write Data Is Equal To Read Data And Both The Address Is Same In Seq State Wrap16 Burst task ended
# UVM_INFO /fetools/work_area/frontend/prakhyath/ahb_avip_loc/src//hvlTop/tb/AhbCoverPropertyTb.sv(770) @ 1095: reporter [AhbCoverPropertyTb] write Data Is Equal To Read Data And Both The AddressIs Not Same In Seq State Wrap16 Burst task Started
# Time=1105, htrans=11, hresp=0, hreadyout=x, hsize = 001 , hwdata =a5a5a5a5, hrdata=zzzzzzzz, haddr=10000000, hwrite=1, hburst=110
# Time=1115, htrans=11, hresp=0, hreadyout=x, hsize = 001 , hwdata =a5a5a5a5, hrdata=zzzzzzzz, haddr=10000004, hwrite=1, hburst=110
# Time=1125, htrans=11, hresp=0, hreadyout=x, hsize = 001 , hwdata =5a5a5a5a, hrdata=zzzzzzzz, haddr=10000008, hwrite=1, hburst=110
# Time=1135, htrans=11, hresp=0, hreadyout=x, hsize = 001 , hwdata =a5a5a5a5, hrdata=zzzzzzzz, haddr=1000000c, hwrite=1, hburst=110
# Time=1145, htrans=11, hresp=0, hreadyout=x, hsize = 001 , hwdata =5a5a5a5a, hrdata=zzzzzzzz, haddr=10000010, hwrite=1, hburst=110
# Time=1155, htrans=11, hresp=0, hreadyout=x, hsize = 001 , hwdata =a5a5a5a5, hrdata=zzzzzzzz, haddr=10000014, hwrite=1, hburst=110
# Time=1165, htrans=11, hresp=0, hreadyout=x, hsize = 001 , hwdata =5a5a5a5a, hrdata=zzzzzzzz, haddr=10000018, hwrite=1, hburst=110
# Time=1175, htrans=11, hresp=0, hreadyout=x, hsize = 001 , hwdata =a5a5a5a5, hrdata=zzzzzzzz, haddr=1000001c, hwrite=1, hburst=110
# Time=1185, htrans=11, hresp=0, hreadyout=x, hsize = 001 , hwdata =5a5a5a5a, hrdata=zzzzzzzz, haddr=10000020, hwrite=1, hburst=110
# Time=1195, htrans=11, hresp=0, hreadyout=x, hsize = 001 , hwdata =a5a5a5a5, hrdata=zzzzzzzz, haddr=10000024, hwrite=1, hburst=110
# Time=1205, htrans=11, hresp=0, hreadyout=x, hsize = 001 , hwdata =5a5a5a5a, hrdata=zzzzzzzz, haddr=10000028, hwrite=1, hburst=110
# Time=1215, htrans=11, hresp=0, hreadyout=x, hsize = 001 , hwdata =a5a5a5a5, hrdata=zzzzzzzz, haddr=1000002c, hwrite=1, hburst=110
# Time=1225, htrans=11, hresp=0, hreadyout=x, hsize = 001 , hwdata =5a5a5a5a, hrdata=zzzzzzzz, haddr=10000030, hwrite=1, hburst=110
# Time=1235, htrans=11, hresp=0, hreadyout=x, hsize = 001 , hwdata =a5a5a5a5, hrdata=zzzzzzzz, haddr=10000034, hwrite=1, hburst=110
# Time=1245, htrans=11, hresp=0, hreadyout=x, hsize = 001 , hwdata =5a5a5a5a, hrdata=zzzzzzzz, haddr=10000038, hwrite=1, hburst=110
# Time=1255, htrans=11, hresp=0, hreadyout=x, hsize = 001 , hwdata =a5a5a5a5, hrdata=zzzzzzzz, haddr=1000003c, hwrite=1, hburst=110
# Time=1265, htrans=11, hresp=0, hreadyout=x, hsize = 001 , hwdata =a5a5a5a5, hrdata=a5a5a5a5, haddr=00000000, hwrite=0, hburst=110
# ** Info: WRITE ADDRESS AND DATA IS NOT EQUAL TO READ ADDRESS AND DATA IN SEQ STATE FOR WRAP16 BURST : COVERED
#    Time: 1275 ns Started: 1265 ns  Scope: AhbCoverPropertyTb.ahbcoverproperty_u.IFWRITEADDRANDDATAISNOTEQUALTOMASTERREADADDRANDDATASEQWRAP16 File: /fetools/work_area/frontend/prakhyath/ahb_avip_loc/src//hdlTop/AhbCoverProperty.sv Line: 204
# UVM_INFO /fetools/work_area/frontend/prakhyath/ahb_avip_loc/src//hvlTop/tb/AhbCoverPropertyTb.sv(863) @ 1285: reporter [AhbCoverPropertyTb] write Data Is Equal To Read Data And Both The AddressIs Not Same In Seq State Wrap16 Burst task ended
# UVM_INFO /fetools/work_area/frontend/prakhyath/ahb_avip_loc/src//hvlTop/tb/AhbCoverPropertyTb.sv(869) @ 1285: reporter [AhbCoverPropertyTb] write Data Is Equal To Read Data And Both The Address Is Same In Seq State Increment16 Burst task Started
# Time=1295, htrans=00, hresp=0, hreadyout=x, hsize = 010 , hwdata =xxxxxxxx, hrdata=xxxxxxxx, haddr=xxxxxxxx, hwrite=0, hburst=000
# Time=1315, htrans=10, hresp=0, hreadyout=x, hsize = 010 , hwdata =1234abcd, hrdata=xxxxxxxx, haddr=10001004, hwrite=1, hburst=111
# Time=1325, htrans=10, hresp=0, hreadyout=x, hsize = 010 , hwdata =1234abcd, hrdata=xxxxxxxx, haddr=10001008, hwrite=1, hburst=111
# Time=1335, htrans=10, hresp=0, hreadyout=x, hsize = 010 , hwdata =1234abcd, hrdata=xxxxxxxx, haddr=1000100c, hwrite=1, hburst=111
# Time=1345, htrans=10, hresp=0, hreadyout=x, hsize = 010 , hwdata =1234abcd, hrdata=xxxxxxxx, haddr=10001010, hwrite=1, hburst=111
# Time=1355, htrans=10, hresp=0, hreadyout=x, hsize = 010 , hwdata =1234abcd, hrdata=xxxxxxxx, haddr=10001014, hwrite=1, hburst=111
# Time=1365, htrans=10, hresp=0, hreadyout=x, hsize = 010 , hwdata =1234abcd, hrdata=xxxxxxxx, haddr=10001018, hwrite=1, hburst=111
# Time=1375, htrans=10, hresp=0, hreadyout=x, hsize = 010 , hwdata =1234abcd, hrdata=xxxxxxxx, haddr=1000101c, hwrite=1, hburst=111
# Time=1385, htrans=10, hresp=0, hreadyout=x, hsize = 010 , hwdata =1234abcd, hrdata=xxxxxxxx, haddr=10001020, hwrite=1, hburst=111
# Time=1395, htrans=10, hresp=0, hreadyout=x, hsize = 010 , hwdata =1234abcd, hrdata=xxxxxxxx, haddr=10001024, hwrite=1, hburst=111
# Time=1405, htrans=10, hresp=0, hreadyout=x, hsize = 010 , hwdata =1234abcd, hrdata=xxxxxxxx, haddr=10001028, hwrite=1, hburst=111
# Time=1415, htrans=10, hresp=0, hreadyout=x, hsize = 010 , hwdata =1234abcd, hrdata=xxxxxxxx, haddr=1000102c, hwrite=1, hburst=111
# Time=1425, htrans=10, hresp=0, hreadyout=x, hsize = 010 , hwdata =1234abcd, hrdata=xxxxxxxx, haddr=10001030, hwrite=1, hburst=111
# Time=1435, htrans=10, hresp=0, hreadyout=x, hsize = 010 , hwdata =1234abcd, hrdata=xxxxxxxx, haddr=10001034, hwrite=1, hburst=111
# Time=1445, htrans=10, hresp=0, hreadyout=x, hsize = 010 , hwdata =1234abcd, hrdata=xxxxxxxx, haddr=10001038, hwrite=1, hburst=111
# Time=1455, htrans=10, hresp=0, hreadyout=x, hsize = 010 , hwdata =1234abcd, hrdata=xxxxxxxx, haddr=1000103c, hwrite=1, hburst=111
# Time=1465, htrans=10, hresp=0, hreadyout=x, hsize = 010 , hwdata =1234abcd, hrdata=xxxxxxxx, haddr=10001040, hwrite=0, hburst=111
# UVM_INFO /fetools/work_area/frontend/prakhyath/ahb_avip_loc/src//hvlTop/tb/AhbCoverPropertyTb.sv(988) @ 1485: reporter [AhbCoverPropertyTb] write Data Is Equal To Read Data And Both The Address Is Same In Seq State Increment16 Burst task ended
# UVM_INFO /fetools/work_area/frontend/prakhyath/ahb_avip_loc/src//hvlTop/tb/AhbCoverPropertyTb.sv(993) @ 1485: reporter [AhbCoverPropertyTb] write Data Is Equal To Read Data And Both The Address Is Not Same In Seq State Increment16 Burst task Started
# Time=1495, htrans=00, hresp=0, hreadyout=x, hsize = 010 , hwdata =xxxxxxxx, hrdata=xxxxxxxx, haddr=xxxxxxxx, hwrite=0, hburst=000
# Time=1515, htrans=10, hresp=0, hreadyout=x, hsize = 001 , hwdata =1234abcd, hrdata=xxxxxxxx, haddr=10001004, hwrite=1, hburst=111
# Time=1525, htrans=11, hresp=0, hreadyout=x, hsize = 001 , hwdata =1234abcd, hrdata=1234abcd, haddr=10001000, hwrite=0, hburst=011
# ** Info: WRITE ADDRESS AND DATA IS NOT EQUAL TO READ ADDRESS AND DATA NON SEQ : COVERED
#    Time: 1535 ns Started: 1525 ns  Scope: AhbCoverPropertyTb.ahbcoverproperty_u.IFWRITEADDRANDDATAISNOTEQUALTOMASTERREADADDRANDDATANONSEQ File: /fetools/work_area/frontend/prakhyath/ahb_avip_loc/src//hdlTop/AhbCoverProperty.sv Line: 156
# UVM_INFO /fetools/work_area/frontend/prakhyath/ahb_avip_loc/src//hvlTop/tb/AhbCoverPropertyTb.sv(1029) @ 1545: reporter [AhbCoverPropertyTb] write Data Is Equal To Read Data And Both The Address Is Not Same In Seq State Increment16 Burst task ended
# ** Note: $finish    : /fetools/work_area/frontend/prakhyath/ahb_avip_loc/src//hvlTop/tb/AhbCoverPropertyTb.sv(93)
#    Time: 1545 ns  Iteration: 1  Instance: /AhbCoverPropertyTb
# Saving coverage database on exit...
# End time: 15:19:11 on Feb 17,2025, Elapsed time: 0:00:08
# Errors: 4, Warnings: 2
