# vsim -vopt work.AhbMasterAssertionTb -voptargs="+acc=npr" -assertdebug "+UVM_TESTNAME=AhbMasterAssertionTb" "+UVM_VERBOSITY=UVM_MEDIUM" -l AhbMasterAssertionTb/AhbMasterAssertionTb.log -sva -coverage -c -do "log -r /*; add wave -r /*; coverage save -onexit -assert -directive -cvg -codeAll AhbMasterAssertionTb/coverage.ucdb; run -all; exit" -wlf AhbMasterAssertionTb/waveform.wlf 
# Start time: 11:04:10 on Feb 13,2025
# ** Note: (vsim-3812) Design is being optimized...
# //  Questa Sim
# //  Version 10.6c linux Jul 25 2017
# //
# //  Copyright 1991-2017 Mentor Graphics Corporation
# //  All Rights Reserved.
# //
# //  QuestaSim and its associated documentation contain trade
# //  secrets and commercial or financial information that are the property of
# //  Mentor Graphics Corporation and are privileged, confidential,
# //  and exempt from disclosure under the Freedom of Information Act,
# //  5 U.S.C. Section 552. Furthermore, this information
# //  is prohibited from disclosure under the Trade Secrets Act,
# //  18 U.S.C. Section 1905.
# //
# Loading sv_std.std
# Loading mtiUvm.uvm_pkg
# Loading work.AhbGlobalPackage(fast)
# Loading work.AhbMasterAssertionTb_sv_unit(fast)
# Loading work.AhbMasterAssertionTb(fast)
# Loading work.AhbMasterAssertion_sv_unit(fast)
# Loading work.AhbMasterAssertion(fast)
# Loading mtiUvm.questa_uvm_pkg(fast)
# Loading /tools/mentor/questasim_10.6c/questasim/uvm-1.1d/linux/uvm_dpi.so
# log -r /*
#  add wave -r /*
#  coverage save -onexit -assert -directive -cvg -codeAll AhbMasterAssertionTb/coverage.ucdb
#  run -all
# ----------------------------------------------------------------
# UVM-1.1d
# (C) 2007-2013 Mentor Graphics Corporation
# (C) 2007-2013 Cadence Design Systems, Inc.
# (C) 2006-2013 Synopsys, Inc.
# (C) 2011-2013 Cypress Semiconductor Corp.
# ----------------------------------------------------------------
# 
#   ***********       IMPORTANT RELEASE NOTES         ************
# 
#   You are using a version of the UVM library that has been compiled
#   with `UVM_NO_DEPRECATED undefined.
#   See http://www.eda.org/svdb/view.php?id=3313 for more details.
# 
#   You are using a version of the UVM library that has been compiled
#   with `UVM_OBJECT_MUST_HAVE_CONSTRUCTOR undefined.
#   See http://www.eda.org/svdb/view.php?id=3770 for more details.
# 
#       (Specify +UVM_NO_RELNOTES to turn off this notice)
# 
# UVM_INFO verilog_src/questa_uvm_pkg-1.2/src/questa_uvm_pkg.sv(215) @ 0: reporter [Questa UVM] QUESTA_UVM-1.2.3
# UVM_INFO verilog_src/questa_uvm_pkg-1.2/src/questa_uvm_pkg.sv(217) @ 0: reporter [Questa UVM]  questa_uvm::init(+struct)
# UVM_INFO /fetools/work_area/frontend/prakhyath/ahb_avip_loc/src//hdlTop/masterAgentBFM/AhbMasterAssertion.sv(30) @ 0: reporter [MASTER_ASSERTIONS] MASTER_ASSERTIONS
# UVM_INFO /fetools/work_area/frontend/prakhyath/ahb_avip_loc/src//hvlTop/tb/AhbMasterAssertionTb.sv(102) @ 0: reporter [AhbMasterAssertionTb] Initializing signals when resetn is deasserted started
# UVM_INFO /fetools/work_area/frontend/prakhyath/ahb_avip_loc/src//hvlTop/tb/AhbMasterAssertionTb.sv(122) @ 5: reporter [AhbMasterAssertionTb] Initializing signals ended
# UVM_INFO /fetools/work_area/frontend/prakhyath/ahb_avip_loc/src//hvlTop/tb/AhbMasterAssertionTb.sv(126) @ 5: reporter [AhbMasterAssertionTb] Check that HWDATA is valid when HWRITE is HIGH AssertionPass Task started
# ** Info: HRESP is OKAY during a successful transfer
#    Time: 15 ns Started: 15 ns  Scope: AhbMasterAssertionTb.ahbmasterassertions_u File: /fetools/work_area/frontend/prakhyath/ahb_avip_loc/src//hdlTop/masterAgentBFM/AhbMasterAssertion.sv Line: 77
# ** Info: HADDR is within the valid range
#    Time: 15 ns Started: 15 ns  Scope: AhbMasterAssertionTb.ahbmasterassertions_u File: /fetools/work_area/frontend/prakhyath/ahb_avip_loc/src//hdlTop/masterAgentBFM/AhbMasterAssertion.sv Line: 68
# ** Info: HADDR is aligned based on HSIZE
#    Time: 15 ns Started: 15 ns  Scope: AhbMasterAssertionTb.ahbmasterassertions_u File: /fetools/work_area/frontend/prakhyath/ahb_avip_loc/src//hdlTop/masterAgentBFM/AhbMasterAssertion.sv Line: 58
# ** Info: HTRANS is Valid
#    Time: 15 ns Started: 15 ns  Scope: AhbMasterAssertionTb.ahbmasterassertions_u File: /fetools/work_area/frontend/prakhyath/ahb_avip_loc/src//hdlTop/masterAgentBFM/AhbMasterAssertion.sv Line: 48
# ** Info: INCR burst type passed: Address incremented correctly
#    Time: 25 ns Started: 25 ns  Scope: AhbMasterAssertionTb.ahbmasterassertions_u File: /fetools/work_area/frontend/prakhyath/ahb_avip_loc/src//hdlTop/masterAgentBFM/AhbMasterAssertion.sv Line: 113
# ** Error: Address changed before HREADY HIGH!
#    Time: 25 ns Started: 15 ns  Scope: AhbMasterAssertionTb.ahbmasterassertions_u File: /fetools/work_area/frontend/prakhyath/ahb_avip_loc/src//hdlTop/masterAgentBFM/AhbMasterAssertion.sv Line: 163 Expr: $stable(haddr)
# ** Info: HRESP is OKAY during a successful transfer
#    Time: 25 ns Started: 25 ns  Scope: AhbMasterAssertionTb.ahbmasterassertions_u File: /fetools/work_area/frontend/prakhyath/ahb_avip_loc/src//hdlTop/masterAgentBFM/AhbMasterAssertion.sv Line: 77
# ** Info: HADDR is within the valid range
#    Time: 25 ns Started: 25 ns  Scope: AhbMasterAssertionTb.ahbmasterassertions_u File: /fetools/work_area/frontend/prakhyath/ahb_avip_loc/src//hdlTop/masterAgentBFM/AhbMasterAssertion.sv Line: 68
# ** Info: HADDR is aligned based on HSIZE
#    Time: 25 ns Started: 25 ns  Scope: AhbMasterAssertionTb.ahbmasterassertions_u File: /fetools/work_area/frontend/prakhyath/ahb_avip_loc/src//hdlTop/masterAgentBFM/AhbMasterAssertion.sv Line: 58
# ** Info: HTRANS is Valid
#    Time: 25 ns Started: 25 ns  Scope: AhbMasterAssertionTb.ahbmasterassertions_u File: /fetools/work_area/frontend/prakhyath/ahb_avip_loc/src//hdlTop/masterAgentBFM/AhbMasterAssertion.sv Line: 48
# ** Info: HREADY remains stable during wait states
#    Time: 25 ns Started: 15 ns  Scope: AhbMasterAssertionTb.ahbmasterassertions_u File: /fetools/work_area/frontend/prakhyath/ahb_avip_loc/src//hdlTop/masterAgentBFM/AhbMasterAssertion.sv Line: 95
# UVM_INFO /fetools/work_area/frontend/prakhyath/ahb_avip_loc/src//hvlTop/tb/AhbMasterAssertionTb.sv(137) @ 35: reporter [AhbMasterAssertionTb] Check that HWDATA is valid when HWRITE is HIGH AssertionPass Task ended
# UVM_INFO /fetools/work_area/frontend/prakhyath/ahb_avip_loc/src//hvlTop/tb/AhbMasterAssertionTb.sv(141) @ 35: reporter [AhbMasterAssertionTb] Check that HWDATA is valid when HWRITE is HIGH AssertionFail Task started
# ** Error: INCR burst type failed: Address not incremented correctly!
#    Time: 35 ns Started: 35 ns  Scope: AhbMasterAssertionTb.ahbmasterassertions_u File: /fetools/work_area/frontend/prakhyath/ahb_avip_loc/src//hdlTop/masterAgentBFM/AhbMasterAssertion.sv Line: 114 Expr: haddr==$past(haddr)+(1<<hsize)
# ** Info: HWDATA is Valid When HWRITE IS HIGH
#    Time: 35 ns Started: 25 ns  Scope: AhbMasterAssertionTb.ahbmasterassertions_u File: /fetools/work_area/frontend/prakhyath/ahb_avip_loc/src//hdlTop/masterAgentBFM/AhbMasterAssertion.sv Line: 39
# ** Error: Address changed before HREADY HIGH!
#    Time: 35 ns Started: 25 ns  Scope: AhbMasterAssertionTb.ahbmasterassertions_u File: /fetools/work_area/frontend/prakhyath/ahb_avip_loc/src//hdlTop/masterAgentBFM/AhbMasterAssertion.sv Line: 163 Expr: hready==0
# ** Info: HRESP is OKAY during a successful transfer
#    Time: 35 ns Started: 35 ns  Scope: AhbMasterAssertionTb.ahbmasterassertions_u File: /fetools/work_area/frontend/prakhyath/ahb_avip_loc/src//hdlTop/masterAgentBFM/AhbMasterAssertion.sv Line: 77
# ** Info: HADDR is within the valid range
#    Time: 35 ns Started: 35 ns  Scope: AhbMasterAssertionTb.ahbmasterassertions_u File: /fetools/work_area/frontend/prakhyath/ahb_avip_loc/src//hdlTop/masterAgentBFM/AhbMasterAssertion.sv Line: 68
# ** Info: HADDR is aligned based on HSIZE
#    Time: 35 ns Started: 35 ns  Scope: AhbMasterAssertionTb.ahbmasterassertions_u File: /fetools/work_area/frontend/prakhyath/ahb_avip_loc/src//hdlTop/masterAgentBFM/AhbMasterAssertion.sv Line: 58
# ** Info: HTRANS is Valid
#    Time: 35 ns Started: 35 ns  Scope: AhbMasterAssertionTb.ahbmasterassertions_u File: /fetools/work_area/frontend/prakhyath/ahb_avip_loc/src//hdlTop/masterAgentBFM/AhbMasterAssertion.sv Line: 48
# ** Info: HREADY remains stable during wait states
#    Time: 35 ns Started: 25 ns  Scope: AhbMasterAssertionTb.ahbmasterassertions_u File: /fetools/work_area/frontend/prakhyath/ahb_avip_loc/src//hdlTop/masterAgentBFM/AhbMasterAssertion.sv Line: 95
# ** Error: INCR burst type failed: Address not incremented correctly!
#    Time: 45 ns Started: 45 ns  Scope: AhbMasterAssertionTb.ahbmasterassertions_u File: /fetools/work_area/frontend/prakhyath/ahb_avip_loc/src//hdlTop/masterAgentBFM/AhbMasterAssertion.sv Line: 114 Expr: haddr==$past(haddr)+(1<<hsize)
# ** Info: HWDATA is Valid When HWRITE IS HIGH
#    Time: 45 ns Started: 35 ns  Scope: AhbMasterAssertionTb.ahbmasterassertions_u File: /fetools/work_area/frontend/prakhyath/ahb_avip_loc/src//hdlTop/masterAgentBFM/AhbMasterAssertion.sv Line: 39
# ** Error: Address changed before HREADY HIGH!
#    Time: 45 ns Started: 35 ns  Scope: AhbMasterAssertionTb.ahbmasterassertions_u File: /fetools/work_area/frontend/prakhyath/ahb_avip_loc/src//hdlTop/masterAgentBFM/AhbMasterAssertion.sv Line: 163 Expr: hready==0
# ** Info: HRESP is OKAY during a successful transfer
#    Time: 45 ns Started: 45 ns  Scope: AhbMasterAssertionTb.ahbmasterassertions_u File: /fetools/work_area/frontend/prakhyath/ahb_avip_loc/src//hdlTop/masterAgentBFM/AhbMasterAssertion.sv Line: 77
# ** Info: HADDR is within the valid range
#    Time: 45 ns Started: 45 ns  Scope: AhbMasterAssertionTb.ahbmasterassertions_u File: /fetools/work_area/frontend/prakhyath/ahb_avip_loc/src//hdlTop/masterAgentBFM/AhbMasterAssertion.sv Line: 68
# ** Info: HADDR is aligned based on HSIZE
#    Time: 45 ns Started: 45 ns  Scope: AhbMasterAssertionTb.ahbmasterassertions_u File: /fetools/work_area/frontend/prakhyath/ahb_avip_loc/src//hdlTop/masterAgentBFM/AhbMasterAssertion.sv Line: 58
# ** Info: HTRANS is Valid
#    Time: 45 ns Started: 45 ns  Scope: AhbMasterAssertionTb.ahbmasterassertions_u File: /fetools/work_area/frontend/prakhyath/ahb_avip_loc/src//hdlTop/masterAgentBFM/AhbMasterAssertion.sv Line: 48
# ** Info: HREADY remains stable during wait states
#    Time: 45 ns Started: 35 ns  Scope: AhbMasterAssertionTb.ahbmasterassertions_u File: /fetools/work_area/frontend/prakhyath/ahb_avip_loc/src//hdlTop/masterAgentBFM/AhbMasterAssertion.sv Line: 95
# ** Error: INCR burst type failed: Address not incremented correctly!
#    Time: 55 ns Started: 55 ns  Scope: AhbMasterAssertionTb.ahbmasterassertions_u File: /fetools/work_area/frontend/prakhyath/ahb_avip_loc/src//hdlTop/masterAgentBFM/AhbMasterAssertion.sv Line: 114 Expr: haddr==$past(haddr)+(1<<hsize)
# ** Info: HWDATA is Valid When HWRITE IS HIGH
#    Time: 55 ns Started: 45 ns  Scope: AhbMasterAssertionTb.ahbmasterassertions_u File: /fetools/work_area/frontend/prakhyath/ahb_avip_loc/src//hdlTop/masterAgentBFM/AhbMasterAssertion.sv Line: 39
# ** Error: Address changed before HREADY HIGH!
#    Time: 55 ns Started: 45 ns  Scope: AhbMasterAssertionTb.ahbmasterassertions_u File: /fetools/work_area/frontend/prakhyath/ahb_avip_loc/src//hdlTop/masterAgentBFM/AhbMasterAssertion.sv Line: 163 Expr: hready==0
# ** Info: HRESP is OKAY during a successful transfer
#    Time: 55 ns Started: 55 ns  Scope: AhbMasterAssertionTb.ahbmasterassertions_u File: /fetools/work_area/frontend/prakhyath/ahb_avip_loc/src//hdlTop/masterAgentBFM/AhbMasterAssertion.sv Line: 77
# ** Info: HADDR is within the valid range
#    Time: 55 ns Started: 55 ns  Scope: AhbMasterAssertionTb.ahbmasterassertions_u File: /fetools/work_area/frontend/prakhyath/ahb_avip_loc/src//hdlTop/masterAgentBFM/AhbMasterAssertion.sv Line: 68
# ** Info: HADDR is aligned based on HSIZE
#    Time: 55 ns Started: 55 ns  Scope: AhbMasterAssertionTb.ahbmasterassertions_u File: /fetools/work_area/frontend/prakhyath/ahb_avip_loc/src//hdlTop/masterAgentBFM/AhbMasterAssertion.sv Line: 58
# ** Info: HTRANS is Valid
#    Time: 55 ns Started: 55 ns  Scope: AhbMasterAssertionTb.ahbmasterassertions_u File: /fetools/work_area/frontend/prakhyath/ahb_avip_loc/src//hdlTop/masterAgentBFM/AhbMasterAssertion.sv Line: 48
# ** Info: HREADY remains stable during wait states
#    Time: 55 ns Started: 45 ns  Scope: AhbMasterAssertionTb.ahbmasterassertions_u File: /fetools/work_area/frontend/prakhyath/ahb_avip_loc/src//hdlTop/masterAgentBFM/AhbMasterAssertion.sv Line: 95
# UVM_INFO /fetools/work_area/frontend/prakhyath/ahb_avip_loc/src//hvlTop/tb/AhbMasterAssertionTb.sv(152) @ 65: reporter [AhbMasterAssertionTb] Check that HWDATA is valid when HWRITE is HIGH AssertionFail Task ended
# UVM_INFO /fetools/work_area/frontend/prakhyath/ahb_avip_loc/src//hvlTop/tb/AhbMasterAssertionTb.sv(156) @ 65: reporter [AhbMasterAssertionTb] Ensure HADDR is aligned based on HSIZE AssertionPass task started
# ** Error: INCR burst type failed: Address not incremented correctly!
#    Time: 65 ns Started: 65 ns  Scope: AhbMasterAssertionTb.ahbmasterassertions_u File: /fetools/work_area/frontend/prakhyath/ahb_avip_loc/src//hdlTop/masterAgentBFM/AhbMasterAssertion.sv Line: 114 Expr: haddr==$past(haddr)+(1<<hsize)
# ** Error: HWDATA contains X when HWRITE is asserted!
#    Time: 65 ns Started: 55 ns  Scope: AhbMasterAssertionTb.ahbmasterassertions_u File: /fetools/work_area/frontend/prakhyath/ahb_avip_loc/src//hdlTop/masterAgentBFM/AhbMasterAssertion.sv Line: 40 Expr: ~$isunknown(hwdata)
# ** Error: Address changed before HREADY HIGH!
#    Time: 65 ns Started: 55 ns  Scope: AhbMasterAssertionTb.ahbmasterassertions_u File: /fetools/work_area/frontend/prakhyath/ahb_avip_loc/src//hdlTop/masterAgentBFM/AhbMasterAssertion.sv Line: 163 Expr: hready==0
# ** Info: HRESP is OKAY during a successful transfer
#    Time: 65 ns Started: 65 ns  Scope: AhbMasterAssertionTb.ahbmasterassertions_u File: /fetools/work_area/frontend/prakhyath/ahb_avip_loc/src//hdlTop/masterAgentBFM/AhbMasterAssertion.sv Line: 77
# ** Info: HADDR is within the valid range
#    Time: 65 ns Started: 65 ns  Scope: AhbMasterAssertionTb.ahbmasterassertions_u File: /fetools/work_area/frontend/prakhyath/ahb_avip_loc/src//hdlTop/masterAgentBFM/AhbMasterAssertion.sv Line: 68
# ** Info: HADDR is aligned based on HSIZE
#    Time: 65 ns Started: 65 ns  Scope: AhbMasterAssertionTb.ahbmasterassertions_u File: /fetools/work_area/frontend/prakhyath/ahb_avip_loc/src//hdlTop/masterAgentBFM/AhbMasterAssertion.sv Line: 58
# ** Info: HTRANS is Valid
#    Time: 65 ns Started: 65 ns  Scope: AhbMasterAssertionTb.ahbmasterassertions_u File: /fetools/work_area/frontend/prakhyath/ahb_avip_loc/src//hdlTop/masterAgentBFM/AhbMasterAssertion.sv Line: 48
# ** Info: HREADY remains stable during wait states
#    Time: 65 ns Started: 55 ns  Scope: AhbMasterAssertionTb.ahbmasterassertions_u File: /fetools/work_area/frontend/prakhyath/ahb_avip_loc/src//hdlTop/masterAgentBFM/AhbMasterAssertion.sv Line: 95
# ** Error: INCR burst type failed: Address not incremented correctly!
#    Time: 75 ns Started: 75 ns  Scope: AhbMasterAssertionTb.ahbmasterassertions_u File: /fetools/work_area/frontend/prakhyath/ahb_avip_loc/src//hdlTop/masterAgentBFM/AhbMasterAssertion.sv Line: 114 Expr: haddr==$past(haddr)+(1<<hsize)
# ** Error: HWDATA contains X when HWRITE is asserted!
#    Time: 75 ns Started: 65 ns  Scope: AhbMasterAssertionTb.ahbmasterassertions_u File: /fetools/work_area/frontend/prakhyath/ahb_avip_loc/src//hdlTop/masterAgentBFM/AhbMasterAssertion.sv Line: 40 Expr: ~$isunknown(hwdata)
# ** Error: Address changed before HREADY HIGH!
#    Time: 75 ns Started: 65 ns  Scope: AhbMasterAssertionTb.ahbmasterassertions_u File: /fetools/work_area/frontend/prakhyath/ahb_avip_loc/src//hdlTop/masterAgentBFM/AhbMasterAssertion.sv Line: 163 Expr: hready==0
# ** Info: HRESP is OKAY during a successful transfer
#    Time: 75 ns Started: 75 ns  Scope: AhbMasterAssertionTb.ahbmasterassertions_u File: /fetools/work_area/frontend/prakhyath/ahb_avip_loc/src//hdlTop/masterAgentBFM/AhbMasterAssertion.sv Line: 77
# ** Info: HADDR is within the valid range
#    Time: 75 ns Started: 75 ns  Scope: AhbMasterAssertionTb.ahbmasterassertions_u File: /fetools/work_area/frontend/prakhyath/ahb_avip_loc/src//hdlTop/masterAgentBFM/AhbMasterAssertion.sv Line: 68
# ** Info: HADDR is aligned based on HSIZE
#    Time: 75 ns Started: 75 ns  Scope: AhbMasterAssertionTb.ahbmasterassertions_u File: /fetools/work_area/frontend/prakhyath/ahb_avip_loc/src//hdlTop/masterAgentBFM/AhbMasterAssertion.sv Line: 58
# ** Info: HTRANS is Valid
#    Time: 75 ns Started: 75 ns  Scope: AhbMasterAssertionTb.ahbmasterassertions_u File: /fetools/work_area/frontend/prakhyath/ahb_avip_loc/src//hdlTop/masterAgentBFM/AhbMasterAssertion.sv Line: 48
# ** Info: HREADY remains stable during wait states
#    Time: 75 ns Started: 65 ns  Scope: AhbMasterAssertionTb.ahbmasterassertions_u File: /fetools/work_area/frontend/prakhyath/ahb_avip_loc/src//hdlTop/masterAgentBFM/AhbMasterAssertion.sv Line: 95
# UVM_INFO /fetools/work_area/frontend/prakhyath/ahb_avip_loc/src//hvlTop/tb/AhbMasterAssertionTb.sv(165) @ 85: reporter [AhbMasterAssertionTb] Ensure HADDR is aligned based on HSIZE AssertionPass Task ended
# UVM_INFO /fetools/work_area/frontend/prakhyath/ahb_avip_loc/src//hvlTop/tb/AhbMasterAssertionTb.sv(169) @ 85: reporter [AhbMasterAssertionTb] Ensure HADDR is aligned based on HSIZE AssertionFail task started
# ** Error: INCR burst type failed: Address not incremented correctly!
#    Time: 85 ns Started: 85 ns  Scope: AhbMasterAssertionTb.ahbmasterassertions_u File: /fetools/work_area/frontend/prakhyath/ahb_avip_loc/src//hdlTop/masterAgentBFM/AhbMasterAssertion.sv Line: 114 Expr: haddr==$past(haddr)+(1<<hsize)
# ** Error: HWDATA contains X when HWRITE is asserted!
#    Time: 85 ns Started: 75 ns  Scope: AhbMasterAssertionTb.ahbmasterassertions_u File: /fetools/work_area/frontend/prakhyath/ahb_avip_loc/src//hdlTop/masterAgentBFM/AhbMasterAssertion.sv Line: 40 Expr: ~$isunknown(hwdata)
# ** Error: Address changed before HREADY HIGH!
#    Time: 85 ns Started: 75 ns  Scope: AhbMasterAssertionTb.ahbmasterassertions_u File: /fetools/work_area/frontend/prakhyath/ahb_avip_loc/src//hdlTop/masterAgentBFM/AhbMasterAssertion.sv Line: 163 Expr: $stable(haddr)
# ** Info: HRESP is OKAY during a successful transfer
#    Time: 85 ns Started: 85 ns  Scope: AhbMasterAssertionTb.ahbmasterassertions_u File: /fetools/work_area/frontend/prakhyath/ahb_avip_loc/src//hdlTop/masterAgentBFM/AhbMasterAssertion.sv Line: 77
# ** Info: HADDR is within the valid range
#    Time: 85 ns Started: 85 ns  Scope: AhbMasterAssertionTb.ahbmasterassertions_u File: /fetools/work_area/frontend/prakhyath/ahb_avip_loc/src//hdlTop/masterAgentBFM/AhbMasterAssertion.sv Line: 68
# ** Info: HADDR is aligned based on HSIZE
#    Time: 85 ns Started: 85 ns  Scope: AhbMasterAssertionTb.ahbmasterassertions_u File: /fetools/work_area/frontend/prakhyath/ahb_avip_loc/src//hdlTop/masterAgentBFM/AhbMasterAssertion.sv Line: 58
# ** Info: HTRANS is Valid
#    Time: 85 ns Started: 85 ns  Scope: AhbMasterAssertionTb.ahbmasterassertions_u File: /fetools/work_area/frontend/prakhyath/ahb_avip_loc/src//hdlTop/masterAgentBFM/AhbMasterAssertion.sv Line: 48
# ** Info: HREADY remains stable during wait states
#    Time: 85 ns Started: 75 ns  Scope: AhbMasterAssertionTb.ahbmasterassertions_u File: /fetools/work_area/frontend/prakhyath/ahb_avip_loc/src//hdlTop/masterAgentBFM/AhbMasterAssertion.sv Line: 95
# ** Error: INCR burst type failed: Address not incremented correctly!
#    Time: 95 ns Started: 95 ns  Scope: AhbMasterAssertionTb.ahbmasterassertions_u File: /fetools/work_area/frontend/prakhyath/ahb_avip_loc/src//hdlTop/masterAgentBFM/AhbMasterAssertion.sv Line: 114 Expr: haddr==$past(haddr)+(1<<hsize)
# ** Error: HWDATA contains X when HWRITE is asserted!
#    Time: 95 ns Started: 85 ns  Scope: AhbMasterAssertionTb.ahbmasterassertions_u File: /fetools/work_area/frontend/prakhyath/ahb_avip_loc/src//hdlTop/masterAgentBFM/AhbMasterAssertion.sv Line: 40 Expr: ~$isunknown(hwdata)
# ** Error: Address changed before HREADY HIGH!
#    Time: 95 ns Started: 85 ns  Scope: AhbMasterAssertionTb.ahbmasterassertions_u File: /fetools/work_area/frontend/prakhyath/ahb_avip_loc/src//hdlTop/masterAgentBFM/AhbMasterAssertion.sv Line: 163 Expr: hready==0
# ** Info: HRESP is OKAY during a successful transfer
#    Time: 95 ns Started: 95 ns  Scope: AhbMasterAssertionTb.ahbmasterassertions_u File: /fetools/work_area/frontend/prakhyath/ahb_avip_loc/src//hdlTop/masterAgentBFM/AhbMasterAssertion.sv Line: 77
# ** Info: HADDR is within the valid range
#    Time: 95 ns Started: 95 ns  Scope: AhbMasterAssertionTb.ahbmasterassertions_u File: /fetools/work_area/frontend/prakhyath/ahb_avip_loc/src//hdlTop/masterAgentBFM/AhbMasterAssertion.sv Line: 68
# ** Info: HADDR is aligned based on HSIZE
#    Time: 95 ns Started: 95 ns  Scope: AhbMasterAssertionTb.ahbmasterassertions_u File: /fetools/work_area/frontend/prakhyath/ahb_avip_loc/src//hdlTop/masterAgentBFM/AhbMasterAssertion.sv Line: 58
# ** Info: HTRANS is Valid
#    Time: 95 ns Started: 95 ns  Scope: AhbMasterAssertionTb.ahbmasterassertions_u File: /fetools/work_area/frontend/prakhyath/ahb_avip_loc/src//hdlTop/masterAgentBFM/AhbMasterAssertion.sv Line: 48
# ** Info: HREADY remains stable during wait states
#    Time: 95 ns Started: 85 ns  Scope: AhbMasterAssertionTb.ahbmasterassertions_u File: /fetools/work_area/frontend/prakhyath/ahb_avip_loc/src//hdlTop/masterAgentBFM/AhbMasterAssertion.sv Line: 95
# ** Error: HWDATA contains X when HWRITE is asserted!
#    Time: 105 ns Started: 95 ns  Scope: AhbMasterAssertionTb.ahbmasterassertions_u File: /fetools/work_area/frontend/prakhyath/ahb_avip_loc/src//hdlTop/masterAgentBFM/AhbMasterAssertion.sv Line: 40 Expr: ~$isunknown(hwdata)
# ** Error: Address changed before HREADY HIGH!
#    Time: 105 ns Started: 95 ns  Scope: AhbMasterAssertionTb.ahbmasterassertions_u File: /fetools/work_area/frontend/prakhyath/ahb_avip_loc/src//hdlTop/masterAgentBFM/AhbMasterAssertion.sv Line: 163 Expr: $stable(haddr)
# ** Info: HRESP is OKAY during a successful transfer
#    Time: 105 ns Started: 105 ns  Scope: AhbMasterAssertionTb.ahbmasterassertions_u File: /fetools/work_area/frontend/prakhyath/ahb_avip_loc/src//hdlTop/masterAgentBFM/AhbMasterAssertion.sv Line: 77
# ** Info: HADDR is within the valid range
#    Time: 105 ns Started: 105 ns  Scope: AhbMasterAssertionTb.ahbmasterassertions_u File: /fetools/work_area/frontend/prakhyath/ahb_avip_loc/src//hdlTop/masterAgentBFM/AhbMasterAssertion.sv Line: 68
# ** Error: HADDR is not aligned based on HSIZE!
#    Time: 105 ns Started: 105 ns  Scope: AhbMasterAssertionTb.ahbmasterassertions_u File: /fetools/work_area/frontend/prakhyath/ahb_avip_loc/src//hdlTop/masterAgentBFM/AhbMasterAssertion.sv Line: 59 Expr: haddr[1:0]==0
# ** Info: HTRANS is Valid
#    Time: 105 ns Started: 105 ns  Scope: AhbMasterAssertionTb.ahbmasterassertions_u File: /fetools/work_area/frontend/prakhyath/ahb_avip_loc/src//hdlTop/masterAgentBFM/AhbMasterAssertion.sv Line: 48
# ** Info: HREADY remains stable during wait states
#    Time: 105 ns Started: 95 ns  Scope: AhbMasterAssertionTb.ahbmasterassertions_u File: /fetools/work_area/frontend/prakhyath/ahb_avip_loc/src//hdlTop/masterAgentBFM/AhbMasterAssertion.sv Line: 95
# UVM_INFO /fetools/work_area/frontend/prakhyath/ahb_avip_loc/src//hvlTop/tb/AhbMasterAssertionTb.sv(179) @ 115: reporter [AhbMasterAssertionTb] Ensure HADDR is aligned based on HSIZE AssertionFail Task ended
# UVM_INFO /fetools/work_area/frontend/prakhyath/ahb_avip_loc/src//hvlTop/tb/AhbMasterAssertionTb.sv(184) @ 115: reporter [AhbMasterAssertionTb] Check if HADDR is within the valid range AssertionPass Task started
# ** Info: HWDATA is Valid When HWRITE IS HIGH
#    Time: 115 ns Started: 105 ns  Scope: AhbMasterAssertionTb.ahbmasterassertions_u File: /fetools/work_area/frontend/prakhyath/ahb_avip_loc/src//hdlTop/masterAgentBFM/AhbMasterAssertion.sv Line: 39
# ** Error: Address changed before HREADY HIGH!
#    Time: 115 ns Started: 105 ns  Scope: AhbMasterAssertionTb.ahbmasterassertions_u File: /fetools/work_area/frontend/prakhyath/ahb_avip_loc/src//hdlTop/masterAgentBFM/AhbMasterAssertion.sv Line: 163 Expr: hready==0
# ** Info: HRESP is OKAY during a successful transfer
#    Time: 115 ns Started: 115 ns  Scope: AhbMasterAssertionTb.ahbmasterassertions_u File: /fetools/work_area/frontend/prakhyath/ahb_avip_loc/src//hdlTop/masterAgentBFM/AhbMasterAssertion.sv Line: 77
# ** Info: HADDR is within the valid range
#    Time: 115 ns Started: 115 ns  Scope: AhbMasterAssertionTb.ahbmasterassertions_u File: /fetools/work_area/frontend/prakhyath/ahb_avip_loc/src//hdlTop/masterAgentBFM/AhbMasterAssertion.sv Line: 68
# ** Error: HADDR is not aligned based on HSIZE!
#    Time: 115 ns Started: 115 ns  Scope: AhbMasterAssertionTb.ahbmasterassertions_u File: /fetools/work_area/frontend/prakhyath/ahb_avip_loc/src//hdlTop/masterAgentBFM/AhbMasterAssertion.sv Line: 59 Expr: haddr[1:0]==0
# ** Info: HTRANS is Valid
#    Time: 115 ns Started: 115 ns  Scope: AhbMasterAssertionTb.ahbmasterassertions_u File: /fetools/work_area/frontend/prakhyath/ahb_avip_loc/src//hdlTop/masterAgentBFM/AhbMasterAssertion.sv Line: 48
# ** Info: HREADY remains stable during wait states
#    Time: 115 ns Started: 105 ns  Scope: AhbMasterAssertionTb.ahbmasterassertions_u File: /fetools/work_area/frontend/prakhyath/ahb_avip_loc/src//hdlTop/masterAgentBFM/AhbMasterAssertion.sv Line: 95
# ** Info: HWDATA is Valid When HWRITE IS HIGH
#    Time: 125 ns Started: 115 ns  Scope: AhbMasterAssertionTb.ahbmasterassertions_u File: /fetools/work_area/frontend/prakhyath/ahb_avip_loc/src//hdlTop/masterAgentBFM/AhbMasterAssertion.sv Line: 39
# ** Error: Address changed before HREADY HIGH!
#    Time: 125 ns Started: 115 ns  Scope: AhbMasterAssertionTb.ahbmasterassertions_u File: /fetools/work_area/frontend/prakhyath/ahb_avip_loc/src//hdlTop/masterAgentBFM/AhbMasterAssertion.sv Line: 163 Expr: hready==0
# ** Info: HRESP is OKAY during a successful transfer
#    Time: 125 ns Started: 125 ns  Scope: AhbMasterAssertionTb.ahbmasterassertions_u File: /fetools/work_area/frontend/prakhyath/ahb_avip_loc/src//hdlTop/masterAgentBFM/AhbMasterAssertion.sv Line: 77
# ** Info: HADDR is within the valid range
#    Time: 125 ns Started: 125 ns  Scope: AhbMasterAssertionTb.ahbmasterassertions_u File: /fetools/work_area/frontend/prakhyath/ahb_avip_loc/src//hdlTop/masterAgentBFM/AhbMasterAssertion.sv Line: 68
# ** Error: HADDR is not aligned based on HSIZE!
#    Time: 125 ns Started: 125 ns  Scope: AhbMasterAssertionTb.ahbmasterassertions_u File: /fetools/work_area/frontend/prakhyath/ahb_avip_loc/src//hdlTop/masterAgentBFM/AhbMasterAssertion.sv Line: 59 Expr: haddr[1:0]==0
# ** Info: HTRANS is Valid
#    Time: 125 ns Started: 125 ns  Scope: AhbMasterAssertionTb.ahbmasterassertions_u File: /fetools/work_area/frontend/prakhyath/ahb_avip_loc/src//hdlTop/masterAgentBFM/AhbMasterAssertion.sv Line: 48
# ** Info: HREADY remains stable during wait states
#    Time: 125 ns Started: 115 ns  Scope: AhbMasterAssertionTb.ahbmasterassertions_u File: /fetools/work_area/frontend/prakhyath/ahb_avip_loc/src//hdlTop/masterAgentBFM/AhbMasterAssertion.sv Line: 95
# UVM_INFO /fetools/work_area/frontend/prakhyath/ahb_avip_loc/src//hvlTop/tb/AhbMasterAssertionTb.sv(192) @ 135: reporter [AhbMasterAssertionTb] Check if HADDR is within the valid range AssertionPass Task ended
# UVM_INFO /fetools/work_area/frontend/prakhyath/ahb_avip_loc/src//hvlTop/tb/AhbMasterAssertionTb.sv(197) @ 135: reporter [AhbMasterAssertionTb] Check if HADDR is within the valid range AssertionFail Task started
# ** Error: INCR burst type failed: Address not incremented correctly!
#    Time: 135 ns Started: 135 ns  Scope: AhbMasterAssertionTb.ahbmasterassertions_u File: /fetools/work_area/frontend/prakhyath/ahb_avip_loc/src//hdlTop/masterAgentBFM/AhbMasterAssertion.sv Line: 114 Expr: haddr==$past(haddr)+(1<<hsize)
# ** Info: HWDATA is Valid When HWRITE IS HIGH
#    Time: 135 ns Started: 125 ns  Scope: AhbMasterAssertionTb.ahbmasterassertions_u File: /fetools/work_area/frontend/prakhyath/ahb_avip_loc/src//hdlTop/masterAgentBFM/AhbMasterAssertion.sv Line: 39
# ** Error: Address changed before HREADY HIGH!
#    Time: 135 ns Started: 125 ns  Scope: AhbMasterAssertionTb.ahbmasterassertions_u File: /fetools/work_area/frontend/prakhyath/ahb_avip_loc/src//hdlTop/masterAgentBFM/AhbMasterAssertion.sv Line: 163 Expr: $stable(haddr)
# ** Info: HRESP is OKAY during a successful transfer
#    Time: 135 ns Started: 135 ns  Scope: AhbMasterAssertionTb.ahbmasterassertions_u File: /fetools/work_area/frontend/prakhyath/ahb_avip_loc/src//hdlTop/masterAgentBFM/AhbMasterAssertion.sv Line: 77
# ** Info: HADDR is within the valid range
#    Time: 135 ns Started: 135 ns  Scope: AhbMasterAssertionTb.ahbmasterassertions_u File: /fetools/work_area/frontend/prakhyath/ahb_avip_loc/src//hdlTop/masterAgentBFM/AhbMasterAssertion.sv Line: 68
# ** Info: HADDR is aligned based on HSIZE
#    Time: 135 ns Started: 135 ns  Scope: AhbMasterAssertionTb.ahbmasterassertions_u File: /fetools/work_area/frontend/prakhyath/ahb_avip_loc/src//hdlTop/masterAgentBFM/AhbMasterAssertion.sv Line: 58
# ** Info: HTRANS is Valid
#    Time: 135 ns Started: 135 ns  Scope: AhbMasterAssertionTb.ahbmasterassertions_u File: /fetools/work_area/frontend/prakhyath/ahb_avip_loc/src//hdlTop/masterAgentBFM/AhbMasterAssertion.sv Line: 48
# ** Info: HREADY remains stable during wait states
#    Time: 135 ns Started: 125 ns  Scope: AhbMasterAssertionTb.ahbmasterassertions_u File: /fetools/work_area/frontend/prakhyath/ahb_avip_loc/src//hdlTop/masterAgentBFM/AhbMasterAssertion.sv Line: 95
# ** Error: INCR burst type failed: Address not incremented correctly!
#    Time: 145 ns Started: 145 ns  Scope: AhbMasterAssertionTb.ahbmasterassertions_u File: /fetools/work_area/frontend/prakhyath/ahb_avip_loc/src//hdlTop/masterAgentBFM/AhbMasterAssertion.sv Line: 114 Expr: haddr==$past(haddr)+(1<<hsize)
# ** Info: HWDATA is Valid When HWRITE IS HIGH
#    Time: 145 ns Started: 135 ns  Scope: AhbMasterAssertionTb.ahbmasterassertions_u File: /fetools/work_area/frontend/prakhyath/ahb_avip_loc/src//hdlTop/masterAgentBFM/AhbMasterAssertion.sv Line: 39
# ** Error: Address changed before HREADY HIGH!
#    Time: 145 ns Started: 135 ns  Scope: AhbMasterAssertionTb.ahbmasterassertions_u File: /fetools/work_area/frontend/prakhyath/ahb_avip_loc/src//hdlTop/masterAgentBFM/AhbMasterAssertion.sv Line: 163 Expr: hready==0
# ** Info: HRESP is OKAY during a successful transfer
#    Time: 145 ns Started: 145 ns  Scope: AhbMasterAssertionTb.ahbmasterassertions_u File: /fetools/work_area/frontend/prakhyath/ahb_avip_loc/src//hdlTop/masterAgentBFM/AhbMasterAssertion.sv Line: 77
# ** Info: HADDR is within the valid range
#    Time: 145 ns Started: 145 ns  Scope: AhbMasterAssertionTb.ahbmasterassertions_u File: /fetools/work_area/frontend/prakhyath/ahb_avip_loc/src//hdlTop/masterAgentBFM/AhbMasterAssertion.sv Line: 68
# ** Info: HADDR is aligned based on HSIZE
#    Time: 145 ns Started: 145 ns  Scope: AhbMasterAssertionTb.ahbmasterassertions_u File: /fetools/work_area/frontend/prakhyath/ahb_avip_loc/src//hdlTop/masterAgentBFM/AhbMasterAssertion.sv Line: 58
# ** Info: HTRANS is Valid
#    Time: 145 ns Started: 145 ns  Scope: AhbMasterAssertionTb.ahbmasterassertions_u File: /fetools/work_area/frontend/prakhyath/ahb_avip_loc/src//hdlTop/masterAgentBFM/AhbMasterAssertion.sv Line: 48
# ** Info: HREADY remains stable during wait states
#    Time: 145 ns Started: 135 ns  Scope: AhbMasterAssertionTb.ahbmasterassertions_u File: /fetools/work_area/frontend/prakhyath/ahb_avip_loc/src//hdlTop/masterAgentBFM/AhbMasterAssertion.sv Line: 95
# ** Info: HWDATA is Valid When HWRITE IS HIGH
#    Time: 155 ns Started: 145 ns  Scope: AhbMasterAssertionTb.ahbmasterassertions_u File: /fetools/work_area/frontend/prakhyath/ahb_avip_loc/src//hdlTop/masterAgentBFM/AhbMasterAssertion.sv Line: 39
# ** Error: Address changed before HREADY HIGH!
#    Time: 155 ns Started: 145 ns  Scope: AhbMasterAssertionTb.ahbmasterassertions_u File: /fetools/work_area/frontend/prakhyath/ahb_avip_loc/src//hdlTop/masterAgentBFM/AhbMasterAssertion.sv Line: 163 Expr: $stable(haddr)
# ** Info: HRESP is OKAY during a successful transfer
#    Time: 155 ns Started: 155 ns  Scope: AhbMasterAssertionTb.ahbmasterassertions_u File: /fetools/work_area/frontend/prakhyath/ahb_avip_loc/src//hdlTop/masterAgentBFM/AhbMasterAssertion.sv Line: 77
# ** Info: HADDR is within the valid range
#    Time: 155 ns Started: 155 ns  Scope: AhbMasterAssertionTb.ahbmasterassertions_u File: /fetools/work_area/frontend/prakhyath/ahb_avip_loc/src//hdlTop/masterAgentBFM/AhbMasterAssertion.sv Line: 68
# ** Error: HADDR is not aligned based on HSIZE!
#    Time: 155 ns Started: 155 ns  Scope: AhbMasterAssertionTb.ahbmasterassertions_u File: /fetools/work_area/frontend/prakhyath/ahb_avip_loc/src//hdlTop/masterAgentBFM/AhbMasterAssertion.sv Line: 59 Expr: haddr[1:0]==0
# ** Info: HTRANS is Valid
#    Time: 155 ns Started: 155 ns  Scope: AhbMasterAssertionTb.ahbmasterassertions_u File: /fetools/work_area/frontend/prakhyath/ahb_avip_loc/src//hdlTop/masterAgentBFM/AhbMasterAssertion.sv Line: 48
# ** Info: HREADY remains stable during wait states
#    Time: 155 ns Started: 145 ns  Scope: AhbMasterAssertionTb.ahbmasterassertions_u File: /fetools/work_area/frontend/prakhyath/ahb_avip_loc/src//hdlTop/masterAgentBFM/AhbMasterAssertion.sv Line: 95
# UVM_INFO /fetools/work_area/frontend/prakhyath/ahb_avip_loc/src//hvlTop/tb/AhbMasterAssertionTb.sv(208) @ 165: reporter [AhbMasterAssertionTb] Check if HADDR is within the valid range AssertionFail Task ended
# UVM_INFO /fetools/work_area/frontend/prakhyath/ahb_avip_loc/src//hvlTop/tb/AhbMasterAssertionTb.sv(212) @ 165: reporter [AhbMasterAssertionTb] Ensure HRESP is OKAY (0) during successful transfers AssertionPass Task started
# ** Info: HWDATA is Valid When HWRITE IS HIGH
#    Time: 165 ns Started: 155 ns  Scope: AhbMasterAssertionTb.ahbmasterassertions_u File: /fetools/work_area/frontend/prakhyath/ahb_avip_loc/src//hdlTop/masterAgentBFM/AhbMasterAssertion.sv Line: 39
# ** Error: Address changed before HREADY HIGH!
#    Time: 165 ns Started: 155 ns  Scope: AhbMasterAssertionTb.ahbmasterassertions_u File: /fetools/work_area/frontend/prakhyath/ahb_avip_loc/src//hdlTop/masterAgentBFM/AhbMasterAssertion.sv Line: 163 Expr: hready==0
# ** Info: HRESP is OKAY during a successful transfer
#    Time: 165 ns Started: 165 ns  Scope: AhbMasterAssertionTb.ahbmasterassertions_u File: /fetools/work_area/frontend/prakhyath/ahb_avip_loc/src//hdlTop/masterAgentBFM/AhbMasterAssertion.sv Line: 77
# ** Info: HADDR is within the valid range
#    Time: 165 ns Started: 165 ns  Scope: AhbMasterAssertionTb.ahbmasterassertions_u File: /fetools/work_area/frontend/prakhyath/ahb_avip_loc/src//hdlTop/masterAgentBFM/AhbMasterAssertion.sv Line: 68
# ** Error: HADDR is not aligned based on HSIZE!
#    Time: 165 ns Started: 165 ns  Scope: AhbMasterAssertionTb.ahbmasterassertions_u File: /fetools/work_area/frontend/prakhyath/ahb_avip_loc/src//hdlTop/masterAgentBFM/AhbMasterAssertion.sv Line: 59 Expr: haddr[1:0]==0
# ** Info: HTRANS is Valid
#    Time: 165 ns Started: 165 ns  Scope: AhbMasterAssertionTb.ahbmasterassertions_u File: /fetools/work_area/frontend/prakhyath/ahb_avip_loc/src//hdlTop/masterAgentBFM/AhbMasterAssertion.sv Line: 48
# ** Info: HREADY remains stable during wait states
#    Time: 165 ns Started: 155 ns  Scope: AhbMasterAssertionTb.ahbmasterassertions_u File: /fetools/work_area/frontend/prakhyath/ahb_avip_loc/src//hdlTop/masterAgentBFM/AhbMasterAssertion.sv Line: 95
# ** Info: HWDATA is Valid When HWRITE IS HIGH
#    Time: 175 ns Started: 165 ns  Scope: AhbMasterAssertionTb.ahbmasterassertions_u File: /fetools/work_area/frontend/prakhyath/ahb_avip_loc/src//hdlTop/masterAgentBFM/AhbMasterAssertion.sv Line: 39
# ** Error: Address changed before HREADY HIGH!
#    Time: 175 ns Started: 165 ns  Scope: AhbMasterAssertionTb.ahbmasterassertions_u File: /fetools/work_area/frontend/prakhyath/ahb_avip_loc/src//hdlTop/masterAgentBFM/AhbMasterAssertion.sv Line: 163 Expr: hready==0
# ** Info: HRESP is OKAY during a successful transfer
#    Time: 175 ns Started: 175 ns  Scope: AhbMasterAssertionTb.ahbmasterassertions_u File: /fetools/work_area/frontend/prakhyath/ahb_avip_loc/src//hdlTop/masterAgentBFM/AhbMasterAssertion.sv Line: 77
# ** Info: HADDR is within the valid range
#    Time: 175 ns Started: 175 ns  Scope: AhbMasterAssertionTb.ahbmasterassertions_u File: /fetools/work_area/frontend/prakhyath/ahb_avip_loc/src//hdlTop/masterAgentBFM/AhbMasterAssertion.sv Line: 68
# ** Error: HADDR is not aligned based on HSIZE!
#    Time: 175 ns Started: 175 ns  Scope: AhbMasterAssertionTb.ahbmasterassertions_u File: /fetools/work_area/frontend/prakhyath/ahb_avip_loc/src//hdlTop/masterAgentBFM/AhbMasterAssertion.sv Line: 59 Expr: haddr[1:0]==0
# ** Info: HTRANS is Valid
#    Time: 175 ns Started: 175 ns  Scope: AhbMasterAssertionTb.ahbmasterassertions_u File: /fetools/work_area/frontend/prakhyath/ahb_avip_loc/src//hdlTop/masterAgentBFM/AhbMasterAssertion.sv Line: 48
# ** Info: HREADY remains stable during wait states
#    Time: 175 ns Started: 165 ns  Scope: AhbMasterAssertionTb.ahbmasterassertions_u File: /fetools/work_area/frontend/prakhyath/ahb_avip_loc/src//hdlTop/masterAgentBFM/AhbMasterAssertion.sv Line: 95
# ** Error: INCR burst type failed: Address not incremented correctly!
#    Time: 185 ns Started: 185 ns  Scope: AhbMasterAssertionTb.ahbmasterassertions_u File: /fetools/work_area/frontend/prakhyath/ahb_avip_loc/src//hdlTop/masterAgentBFM/AhbMasterAssertion.sv Line: 114 Expr: haddr==$past(haddr)+(1<<hsize)
# ** Info: HWDATA is Valid When HWRITE IS HIGH
#    Time: 185 ns Started: 175 ns  Scope: AhbMasterAssertionTb.ahbmasterassertions_u File: /fetools/work_area/frontend/prakhyath/ahb_avip_loc/src//hdlTop/masterAgentBFM/AhbMasterAssertion.sv Line: 39
# ** Error: Address changed before HREADY HIGH!
#    Time: 185 ns Started: 175 ns  Scope: AhbMasterAssertionTb.ahbmasterassertions_u File: /fetools/work_area/frontend/prakhyath/ahb_avip_loc/src//hdlTop/masterAgentBFM/AhbMasterAssertion.sv Line: 163 Expr: $stable(haddr)
# ** Info: HRESP is OKAY during a successful transfer
#    Time: 185 ns Started: 185 ns  Scope: AhbMasterAssertionTb.ahbmasterassertions_u File: /fetools/work_area/frontend/prakhyath/ahb_avip_loc/src//hdlTop/masterAgentBFM/AhbMasterAssertion.sv Line: 77
# ** Info: HADDR is within the valid range
#    Time: 185 ns Started: 185 ns  Scope: AhbMasterAssertionTb.ahbmasterassertions_u File: /fetools/work_area/frontend/prakhyath/ahb_avip_loc/src//hdlTop/masterAgentBFM/AhbMasterAssertion.sv Line: 68
# ** Info: HADDR is aligned based on HSIZE
#    Time: 185 ns Started: 185 ns  Scope: AhbMasterAssertionTb.ahbmasterassertions_u File: /fetools/work_area/frontend/prakhyath/ahb_avip_loc/src//hdlTop/masterAgentBFM/AhbMasterAssertion.sv Line: 58
# ** Info: HTRANS is Valid
#    Time: 185 ns Started: 185 ns  Scope: AhbMasterAssertionTb.ahbmasterassertions_u File: /fetools/work_area/frontend/prakhyath/ahb_avip_loc/src//hdlTop/masterAgentBFM/AhbMasterAssertion.sv Line: 48
# ** Info: HREADY remains stable during wait states
#    Time: 185 ns Started: 175 ns  Scope: AhbMasterAssertionTb.ahbmasterassertions_u File: /fetools/work_area/frontend/prakhyath/ahb_avip_loc/src//hdlTop/masterAgentBFM/AhbMasterAssertion.sv Line: 95
# UVM_INFO /fetools/work_area/frontend/prakhyath/ahb_avip_loc/src//hvlTop/tb/AhbMasterAssertionTb.sv(223) @ 195: reporter [AhbMasterAssertionTb] Ensure HRESP is OKAY (0) during successful transfers AssertionPass Task ended
# UVM_INFO /fetools/work_area/frontend/prakhyath/ahb_avip_loc/src//hvlTop/tb/AhbMasterAssertionTb.sv(227) @ 195: reporter [AhbMasterAssertionTb] Ensure HRESP is OKAY (0) during successful transfers AssertionFail Task started
# ** Error: INCR burst type failed: Address not incremented correctly!
#    Time: 195 ns Started: 195 ns  Scope: AhbMasterAssertionTb.ahbmasterassertions_u File: /fetools/work_area/frontend/prakhyath/ahb_avip_loc/src//hdlTop/masterAgentBFM/AhbMasterAssertion.sv Line: 114 Expr: haddr==$past(haddr)+(1<<hsize)
# ** Info: HWDATA is Valid When HWRITE IS HIGH
#    Time: 195 ns Started: 185 ns  Scope: AhbMasterAssertionTb.ahbmasterassertions_u File: /fetools/work_area/frontend/prakhyath/ahb_avip_loc/src//hdlTop/masterAgentBFM/AhbMasterAssertion.sv Line: 39
# ** Error: Address changed before HREADY HIGH!
#    Time: 195 ns Started: 185 ns  Scope: AhbMasterAssertionTb.ahbmasterassertions_u File: /fetools/work_area/frontend/prakhyath/ahb_avip_loc/src//hdlTop/masterAgentBFM/AhbMasterAssertion.sv Line: 163 Expr: hready==0
# ** Info: HRESP is OKAY during a successful transfer
#    Time: 195 ns Started: 195 ns  Scope: AhbMasterAssertionTb.ahbmasterassertions_u File: /fetools/work_area/frontend/prakhyath/ahb_avip_loc/src//hdlTop/masterAgentBFM/AhbMasterAssertion.sv Line: 77
# ** Info: HADDR is within the valid range
#    Time: 195 ns Started: 195 ns  Scope: AhbMasterAssertionTb.ahbmasterassertions_u File: /fetools/work_area/frontend/prakhyath/ahb_avip_loc/src//hdlTop/masterAgentBFM/AhbMasterAssertion.sv Line: 68
# ** Info: HADDR is aligned based on HSIZE
#    Time: 195 ns Started: 195 ns  Scope: AhbMasterAssertionTb.ahbmasterassertions_u File: /fetools/work_area/frontend/prakhyath/ahb_avip_loc/src//hdlTop/masterAgentBFM/AhbMasterAssertion.sv Line: 58
# ** Info: HTRANS is Valid
#    Time: 195 ns Started: 195 ns  Scope: AhbMasterAssertionTb.ahbmasterassertions_u File: /fetools/work_area/frontend/prakhyath/ahb_avip_loc/src//hdlTop/masterAgentBFM/AhbMasterAssertion.sv Line: 48
# ** Info: HREADY remains stable during wait states
#    Time: 195 ns Started: 185 ns  Scope: AhbMasterAssertionTb.ahbmasterassertions_u File: /fetools/work_area/frontend/prakhyath/ahb_avip_loc/src//hdlTop/masterAgentBFM/AhbMasterAssertion.sv Line: 95
# ** Error: INCR burst type failed: Address not incremented correctly!
#    Time: 205 ns Started: 205 ns  Scope: AhbMasterAssertionTb.ahbmasterassertions_u File: /fetools/work_area/frontend/prakhyath/ahb_avip_loc/src//hdlTop/masterAgentBFM/AhbMasterAssertion.sv Line: 114 Expr: haddr==$past(haddr)+(1<<hsize)
# ** Info: HWDATA is Valid When HWRITE IS HIGH
#    Time: 205 ns Started: 195 ns  Scope: AhbMasterAssertionTb.ahbmasterassertions_u File: /fetools/work_area/frontend/prakhyath/ahb_avip_loc/src//hdlTop/masterAgentBFM/AhbMasterAssertion.sv Line: 39
# ** Error: Address changed before HREADY HIGH!
#    Time: 205 ns Started: 195 ns  Scope: AhbMasterAssertionTb.ahbmasterassertions_u File: /fetools/work_area/frontend/prakhyath/ahb_avip_loc/src//hdlTop/masterAgentBFM/AhbMasterAssertion.sv Line: 163 Expr: hready==0
# ** Info: HRESP is OKAY during a successful transfer
#    Time: 205 ns Started: 205 ns  Scope: AhbMasterAssertionTb.ahbmasterassertions_u File: /fetools/work_area/frontend/prakhyath/ahb_avip_loc/src//hdlTop/masterAgentBFM/AhbMasterAssertion.sv Line: 77
# ** Info: HADDR is within the valid range
#    Time: 205 ns Started: 205 ns  Scope: AhbMasterAssertionTb.ahbmasterassertions_u File: /fetools/work_area/frontend/prakhyath/ahb_avip_loc/src//hdlTop/masterAgentBFM/AhbMasterAssertion.sv Line: 68
# ** Info: HADDR is aligned based on HSIZE
#    Time: 205 ns Started: 205 ns  Scope: AhbMasterAssertionTb.ahbmasterassertions_u File: /fetools/work_area/frontend/prakhyath/ahb_avip_loc/src//hdlTop/masterAgentBFM/AhbMasterAssertion.sv Line: 58
# ** Info: HTRANS is Valid
#    Time: 205 ns Started: 205 ns  Scope: AhbMasterAssertionTb.ahbmasterassertions_u File: /fetools/work_area/frontend/prakhyath/ahb_avip_loc/src//hdlTop/masterAgentBFM/AhbMasterAssertion.sv Line: 48
# ** Info: HREADY remains stable during wait states
#    Time: 205 ns Started: 195 ns  Scope: AhbMasterAssertionTb.ahbmasterassertions_u File: /fetools/work_area/frontend/prakhyath/ahb_avip_loc/src//hdlTop/masterAgentBFM/AhbMasterAssertion.sv Line: 95
# UVM_INFO /fetools/work_area/frontend/prakhyath/ahb_avip_loc/src//hvlTop/tb/AhbMasterAssertionTb.sv(234) @ 215: reporter [AhbMasterAssertionTb] Ensure HRESP is OKAY (0) during successful transfers AssertionFail Task ended
# UVM_INFO /fetools/work_area/frontend/prakhyath/ahb_avip_loc/src//hvlTop/tb/AhbMasterAssertionTb.sv(238) @ 215: reporter [AhbMasterAssertionTb] Ensure HRESP is ERROR (1) during successful transfers AssertionPass Task started
# ** Info: HRESP is ERROR during error conditions
#    Time: 215 ns Started: 215 ns  Scope: AhbMasterAssertionTb.ahbmasterassertions_u File: /fetools/work_area/frontend/prakhyath/ahb_avip_loc/src//hdlTop/masterAgentBFM/AhbMasterAssertion.sv Line: 86
# ** Error: INCR burst type failed: Address not incremented correctly!
#    Time: 215 ns Started: 215 ns  Scope: AhbMasterAssertionTb.ahbmasterassertions_u File: /fetools/work_area/frontend/prakhyath/ahb_avip_loc/src//hdlTop/masterAgentBFM/AhbMasterAssertion.sv Line: 114 Expr: haddr==$past(haddr)+(1<<hsize)
# ** Info: HWDATA is Valid When HWRITE IS HIGH
#    Time: 215 ns Started: 205 ns  Scope: AhbMasterAssertionTb.ahbmasterassertions_u File: /fetools/work_area/frontend/prakhyath/ahb_avip_loc/src//hdlTop/masterAgentBFM/AhbMasterAssertion.sv Line: 39
# ** Error: Address changed before HREADY HIGH!
#    Time: 215 ns Started: 205 ns  Scope: AhbMasterAssertionTb.ahbmasterassertions_u File: /fetools/work_area/frontend/prakhyath/ahb_avip_loc/src//hdlTop/masterAgentBFM/AhbMasterAssertion.sv Line: 163 Expr: hready==0
# ** Error: HRESP is not OKAY for a successful transfer!
#    Time: 215 ns Started: 215 ns  Scope: AhbMasterAssertionTb.ahbmasterassertions_u File: /fetools/work_area/frontend/prakhyath/ahb_avip_loc/src//hdlTop/masterAgentBFM/AhbMasterAssertion.sv Line: 78 Expr: ~hresp
# ** Info: HADDR is within the valid range
#    Time: 215 ns Started: 215 ns  Scope: AhbMasterAssertionTb.ahbmasterassertions_u File: /fetools/work_area/frontend/prakhyath/ahb_avip_loc/src//hdlTop/masterAgentBFM/AhbMasterAssertion.sv Line: 68
# ** Info: HADDR is aligned based on HSIZE
#    Time: 215 ns Started: 215 ns  Scope: AhbMasterAssertionTb.ahbmasterassertions_u File: /fetools/work_area/frontend/prakhyath/ahb_avip_loc/src//hdlTop/masterAgentBFM/AhbMasterAssertion.sv Line: 58
# ** Info: HTRANS is Valid
#    Time: 215 ns Started: 215 ns  Scope: AhbMasterAssertionTb.ahbmasterassertions_u File: /fetools/work_area/frontend/prakhyath/ahb_avip_loc/src//hdlTop/masterAgentBFM/AhbMasterAssertion.sv Line: 48
# ** Info: HREADY remains stable during wait states
#    Time: 215 ns Started: 205 ns  Scope: AhbMasterAssertionTb.ahbmasterassertions_u File: /fetools/work_area/frontend/prakhyath/ahb_avip_loc/src//hdlTop/masterAgentBFM/AhbMasterAssertion.sv Line: 95
# ** Info: HRESP is ERROR during error conditions
#    Time: 225 ns Started: 225 ns  Scope: AhbMasterAssertionTb.ahbmasterassertions_u File: /fetools/work_area/frontend/prakhyath/ahb_avip_loc/src//hdlTop/masterAgentBFM/AhbMasterAssertion.sv Line: 86
# ** Error: INCR burst type failed: Address not incremented correctly!
#    Time: 225 ns Started: 225 ns  Scope: AhbMasterAssertionTb.ahbmasterassertions_u File: /fetools/work_area/frontend/prakhyath/ahb_avip_loc/src//hdlTop/masterAgentBFM/AhbMasterAssertion.sv Line: 114 Expr: haddr==$past(haddr)+(1<<hsize)
# ** Info: HWDATA is Valid When HWRITE IS HIGH
#    Time: 225 ns Started: 215 ns  Scope: AhbMasterAssertionTb.ahbmasterassertions_u File: /fetools/work_area/frontend/prakhyath/ahb_avip_loc/src//hdlTop/masterAgentBFM/AhbMasterAssertion.sv Line: 39
# ** Error: Address changed before HREADY HIGH!
#    Time: 225 ns Started: 215 ns  Scope: AhbMasterAssertionTb.ahbmasterassertions_u File: /fetools/work_area/frontend/prakhyath/ahb_avip_loc/src//hdlTop/masterAgentBFM/AhbMasterAssertion.sv Line: 163 Expr: hready==0
# ** Error: HRESP is not OKAY for a successful transfer!
#    Time: 225 ns Started: 225 ns  Scope: AhbMasterAssertionTb.ahbmasterassertions_u File: /fetools/work_area/frontend/prakhyath/ahb_avip_loc/src//hdlTop/masterAgentBFM/AhbMasterAssertion.sv Line: 78 Expr: ~hresp
# ** Info: HADDR is within the valid range
#    Time: 225 ns Started: 225 ns  Scope: AhbMasterAssertionTb.ahbmasterassertions_u File: /fetools/work_area/frontend/prakhyath/ahb_avip_loc/src//hdlTop/masterAgentBFM/AhbMasterAssertion.sv Line: 68
# ** Info: HADDR is aligned based on HSIZE
#    Time: 225 ns Started: 225 ns  Scope: AhbMasterAssertionTb.ahbmasterassertions_u File: /fetools/work_area/frontend/prakhyath/ahb_avip_loc/src//hdlTop/masterAgentBFM/AhbMasterAssertion.sv Line: 58
# ** Info: HTRANS is Valid
#    Time: 225 ns Started: 225 ns  Scope: AhbMasterAssertionTb.ahbmasterassertions_u File: /fetools/work_area/frontend/prakhyath/ahb_avip_loc/src//hdlTop/masterAgentBFM/AhbMasterAssertion.sv Line: 48
# ** Info: HREADY remains stable during wait states
#    Time: 225 ns Started: 215 ns  Scope: AhbMasterAssertionTb.ahbmasterassertions_u File: /fetools/work_area/frontend/prakhyath/ahb_avip_loc/src//hdlTop/masterAgentBFM/AhbMasterAssertion.sv Line: 95
# UVM_INFO /fetools/work_area/frontend/prakhyath/ahb_avip_loc/src//hvlTop/tb/AhbMasterAssertionTb.sv(245) @ 235: reporter [AhbMasterAssertionTb] Ensure HRESP is ERROR (1) during successful transfers AssertionPass Task ended
# UVM_INFO /fetools/work_area/frontend/prakhyath/ahb_avip_loc/src//hvlTop/tb/AhbMasterAssertionTb.sv(249) @ 235: reporter [AhbMasterAssertionTb] Check for INCR (incrementing burst) AssertionPass Task started
# ** Error: Address changed before HREADY HIGH!
#    Time: 235 ns Started: 225 ns  Scope: AhbMasterAssertionTb.ahbmasterassertions_u File: /fetools/work_area/frontend/prakhyath/ahb_avip_loc/src//hdlTop/masterAgentBFM/AhbMasterAssertion.sv Line: 163 Expr: hready==0
# ** Info: HWDATA is Valid When HWRITE IS HIGH
#    Time: 235 ns Started: 225 ns  Scope: AhbMasterAssertionTb.ahbmasterassertions_u File: /fetools/work_area/frontend/prakhyath/ahb_avip_loc/src//hdlTop/masterAgentBFM/AhbMasterAssertion.sv Line: 39
# ** Error: Unexpected HRESP ERROR when transfer is IDLE!
#    Time: 235 ns Started: 235 ns  Scope: AhbMasterAssertionTb.ahbmasterassertions_u File: /fetools/work_area/frontend/prakhyath/ahb_avip_loc/src//hdlTop/masterAgentBFM/AhbMasterAssertion.sv Line: 87 Expr: htrans!=0
# ** Info: HREADY remains stable during wait states
#    Time: 235 ns Started: 225 ns  Scope: AhbMasterAssertionTb.ahbmasterassertions_u File: /fetools/work_area/frontend/prakhyath/ahb_avip_loc/src//hdlTop/masterAgentBFM/AhbMasterAssertion.sv Line: 95
# ** Error: Unexpected HRESP ERROR when transfer is IDLE!
#    Time: 245 ns Started: 245 ns  Scope: AhbMasterAssertionTb.ahbmasterassertions_u File: /fetools/work_area/frontend/prakhyath/ahb_avip_loc/src//hdlTop/masterAgentBFM/AhbMasterAssertion.sv Line: 87 Expr: htrans!=0
# ** Info: HREADY remains stable during wait states
#    Time: 245 ns Started: 235 ns  Scope: AhbMasterAssertionTb.ahbmasterassertions_u File: /fetools/work_area/frontend/prakhyath/ahb_avip_loc/src//hdlTop/masterAgentBFM/AhbMasterAssertion.sv Line: 95
# UVM_INFO /fetools/work_area/frontend/prakhyath/ahb_avip_loc/src//hvlTop/tb/AhbMasterAssertionTb.sv(258) @ 255: reporter [AhbMasterAssertionTb] Check for INCR (incrementing burst) AssertionPass Task ended
# UVM_INFO /fetools/work_area/frontend/prakhyath/ahb_avip_loc/src//hvlTop/tb/AhbMasterAssertionTb.sv(262) @ 255: reporter [AhbMasterAssertionTb] Check for INCR (incrementing burst) AssertionFail Task started
# ** Error: HRESP is not OKAY for a successful transfer!
#    Time: 255 ns Started: 255 ns  Scope: AhbMasterAssertionTb.ahbmasterassertions_u File: /fetools/work_area/frontend/prakhyath/ahb_avip_loc/src//hdlTop/masterAgentBFM/AhbMasterAssertion.sv Line: 78 Expr: ~hresp
# ** Error: INCR burst type failed: Address not incremented correctly!
#    Time: 255 ns Started: 255 ns  Scope: AhbMasterAssertionTb.ahbmasterassertions_u File: /fetools/work_area/frontend/prakhyath/ahb_avip_loc/src//hdlTop/masterAgentBFM/AhbMasterAssertion.sv Line: 114 Expr: haddr==$past(haddr)+(1<<hsize)
# ** Info: HADDR is within the valid range
#    Time: 255 ns Started: 255 ns  Scope: AhbMasterAssertionTb.ahbmasterassertions_u File: /fetools/work_area/frontend/prakhyath/ahb_avip_loc/src//hdlTop/masterAgentBFM/AhbMasterAssertion.sv Line: 68
# ** Info: HADDR is aligned based on HSIZE
#    Time: 255 ns Started: 255 ns  Scope: AhbMasterAssertionTb.ahbmasterassertions_u File: /fetools/work_area/frontend/prakhyath/ahb_avip_loc/src//hdlTop/masterAgentBFM/AhbMasterAssertion.sv Line: 58
# ** Info: HTRANS is Valid
#    Time: 255 ns Started: 255 ns  Scope: AhbMasterAssertionTb.ahbmasterassertions_u File: /fetools/work_area/frontend/prakhyath/ahb_avip_loc/src//hdlTop/masterAgentBFM/AhbMasterAssertion.sv Line: 48
# ** Info: HRESP is ERROR during error conditions
#    Time: 255 ns Started: 255 ns  Scope: AhbMasterAssertionTb.ahbmasterassertions_u File: /fetools/work_area/frontend/prakhyath/ahb_avip_loc/src//hdlTop/masterAgentBFM/AhbMasterAssertion.sv Line: 86
# ** Info: HREADY remains stable during wait states
#    Time: 255 ns Started: 245 ns  Scope: AhbMasterAssertionTb.ahbmasterassertions_u File: /fetools/work_area/frontend/prakhyath/ahb_avip_loc/src//hdlTop/masterAgentBFM/AhbMasterAssertion.sv Line: 95
# ** Error: HRESP is not OKAY for a successful transfer!
#    Time: 265 ns Started: 265 ns  Scope: AhbMasterAssertionTb.ahbmasterassertions_u File: /fetools/work_area/frontend/prakhyath/ahb_avip_loc/src//hdlTop/masterAgentBFM/AhbMasterAssertion.sv Line: 78 Expr: ~hresp
# ** Error: INCR burst type failed: Address not incremented correctly!
#    Time: 265 ns Started: 265 ns  Scope: AhbMasterAssertionTb.ahbmasterassertions_u File: /fetools/work_area/frontend/prakhyath/ahb_avip_loc/src//hdlTop/masterAgentBFM/AhbMasterAssertion.sv Line: 114 Expr: haddr==$past(haddr)+(1<<hsize)
# ** Info: HADDR is within the valid range
#    Time: 265 ns Started: 265 ns  Scope: AhbMasterAssertionTb.ahbmasterassertions_u File: /fetools/work_area/frontend/prakhyath/ahb_avip_loc/src//hdlTop/masterAgentBFM/AhbMasterAssertion.sv Line: 68
# ** Info: HADDR is aligned based on HSIZE
#    Time: 265 ns Started: 265 ns  Scope: AhbMasterAssertionTb.ahbmasterassertions_u File: /fetools/work_area/frontend/prakhyath/ahb_avip_loc/src//hdlTop/masterAgentBFM/AhbMasterAssertion.sv Line: 58
# ** Info: HTRANS is Valid
#    Time: 265 ns Started: 265 ns  Scope: AhbMasterAssertionTb.ahbmasterassertions_u File: /fetools/work_area/frontend/prakhyath/ahb_avip_loc/src//hdlTop/masterAgentBFM/AhbMasterAssertion.sv Line: 48
# ** Info: HWDATA is Valid When HWRITE IS HIGH
#    Time: 265 ns Started: 255 ns  Scope: AhbMasterAssertionTb.ahbmasterassertions_u File: /fetools/work_area/frontend/prakhyath/ahb_avip_loc/src//hdlTop/masterAgentBFM/AhbMasterAssertion.sv Line: 39
# ** Error: Address changed before HREADY HIGH!
#    Time: 265 ns Started: 255 ns  Scope: AhbMasterAssertionTb.ahbmasterassertions_u File: /fetools/work_area/frontend/prakhyath/ahb_avip_loc/src//hdlTop/masterAgentBFM/AhbMasterAssertion.sv Line: 163 Expr: hready==0
# ** Info: HRESP is ERROR during error conditions
#    Time: 265 ns Started: 265 ns  Scope: AhbMasterAssertionTb.ahbmasterassertions_u File: /fetools/work_area/frontend/prakhyath/ahb_avip_loc/src//hdlTop/masterAgentBFM/AhbMasterAssertion.sv Line: 86
# ** Info: HREADY remains stable during wait states
#    Time: 265 ns Started: 255 ns  Scope: AhbMasterAssertionTb.ahbmasterassertions_u File: /fetools/work_area/frontend/prakhyath/ahb_avip_loc/src//hdlTop/masterAgentBFM/AhbMasterAssertion.sv Line: 95
# UVM_INFO /fetools/work_area/frontend/prakhyath/ahb_avip_loc/src//hvlTop/tb/AhbMasterAssertionTb.sv(271) @ 275: reporter [AhbMasterAssertionTb] Check for INCR (incrementing burst) AssertionFail Task ended
# UVM_INFO /fetools/work_area/frontend/prakhyath/ahb_avip_loc/src//hvlTop/tb/AhbMasterAssertionTb.sv(275) @ 275: reporter [AhbMasterAssertionTb] Ensure HREADY remains stable during wait states Assertion Pass Task started
# ** Error: HRESP is not OKAY for a successful transfer!
#    Time: 275 ns Started: 275 ns  Scope: AhbMasterAssertionTb.ahbmasterassertions_u File: /fetools/work_area/frontend/prakhyath/ahb_avip_loc/src//hdlTop/masterAgentBFM/AhbMasterAssertion.sv Line: 78 Expr: ~hresp
# ** Error: INCR burst type failed: Address not incremented correctly!
#    Time: 275 ns Started: 275 ns  Scope: AhbMasterAssertionTb.ahbmasterassertions_u File: /fetools/work_area/frontend/prakhyath/ahb_avip_loc/src//hdlTop/masterAgentBFM/AhbMasterAssertion.sv Line: 114 Expr: haddr==$past(haddr)+(1<<hsize)
# ** Info: HADDR is within the valid range
#    Time: 275 ns Started: 275 ns  Scope: AhbMasterAssertionTb.ahbmasterassertions_u File: /fetools/work_area/frontend/prakhyath/ahb_avip_loc/src//hdlTop/masterAgentBFM/AhbMasterAssertion.sv Line: 68
# ** Error: HADDR is not aligned based on HSIZE!
#    Time: 275 ns Started: 275 ns  Scope: AhbMasterAssertionTb.ahbmasterassertions_u File: /fetools/work_area/frontend/prakhyath/ahb_avip_loc/src//hdlTop/masterAgentBFM/AhbMasterAssertion.sv Line: 59 Expr: hsize==2
# ** Info: HTRANS is Valid
#    Time: 275 ns Started: 275 ns  Scope: AhbMasterAssertionTb.ahbmasterassertions_u File: /fetools/work_area/frontend/prakhyath/ahb_avip_loc/src//hdlTop/masterAgentBFM/AhbMasterAssertion.sv Line: 48
# ** Info: HWDATA is Valid When HWRITE IS HIGH
#    Time: 275 ns Started: 265 ns  Scope: AhbMasterAssertionTb.ahbmasterassertions_u File: /fetools/work_area/frontend/prakhyath/ahb_avip_loc/src//hdlTop/masterAgentBFM/AhbMasterAssertion.sv Line: 39
# ** Error: Address changed before HREADY HIGH!
#    Time: 275 ns Started: 265 ns  Scope: AhbMasterAssertionTb.ahbmasterassertions_u File: /fetools/work_area/frontend/prakhyath/ahb_avip_loc/src//hdlTop/masterAgentBFM/AhbMasterAssertion.sv Line: 163 Expr: $stable(haddr)
# ** Info: HRESP is ERROR during error conditions
#    Time: 275 ns Started: 275 ns  Scope: AhbMasterAssertionTb.ahbmasterassertions_u File: /fetools/work_area/frontend/prakhyath/ahb_avip_loc/src//hdlTop/masterAgentBFM/AhbMasterAssertion.sv Line: 86
# ** Info: HREADY remains stable during wait states
#    Time: 275 ns Started: 265 ns  Scope: AhbMasterAssertionTb.ahbmasterassertions_u File: /fetools/work_area/frontend/prakhyath/ahb_avip_loc/src//hdlTop/masterAgentBFM/AhbMasterAssertion.sv Line: 95
# ** Error: HRESP is not OKAY for a successful transfer!
#    Time: 285 ns Started: 285 ns  Scope: AhbMasterAssertionTb.ahbmasterassertions_u File: /fetools/work_area/frontend/prakhyath/ahb_avip_loc/src//hdlTop/masterAgentBFM/AhbMasterAssertion.sv Line: 78 Expr: ~hresp
# ** Error: INCR burst type failed: Address not incremented correctly!
#    Time: 285 ns Started: 285 ns  Scope: AhbMasterAssertionTb.ahbmasterassertions_u File: /fetools/work_area/frontend/prakhyath/ahb_avip_loc/src//hdlTop/masterAgentBFM/AhbMasterAssertion.sv Line: 114 Expr: haddr==$past(haddr)+(1<<hsize)
# ** Info: HADDR is within the valid range
#    Time: 285 ns Started: 285 ns  Scope: AhbMasterAssertionTb.ahbmasterassertions_u File: /fetools/work_area/frontend/prakhyath/ahb_avip_loc/src//hdlTop/masterAgentBFM/AhbMasterAssertion.sv Line: 68
# ** Error: HADDR is not aligned based on HSIZE!
#    Time: 285 ns Started: 285 ns  Scope: AhbMasterAssertionTb.ahbmasterassertions_u File: /fetools/work_area/frontend/prakhyath/ahb_avip_loc/src//hdlTop/masterAgentBFM/AhbMasterAssertion.sv Line: 59 Expr: hsize==2
# ** Info: HTRANS is Valid
#    Time: 285 ns Started: 285 ns  Scope: AhbMasterAssertionTb.ahbmasterassertions_u File: /fetools/work_area/frontend/prakhyath/ahb_avip_loc/src//hdlTop/masterAgentBFM/AhbMasterAssertion.sv Line: 48
# ** Info: HWDATA is Valid When HWRITE IS HIGH
#    Time: 285 ns Started: 275 ns  Scope: AhbMasterAssertionTb.ahbmasterassertions_u File: /fetools/work_area/frontend/prakhyath/ahb_avip_loc/src//hdlTop/masterAgentBFM/AhbMasterAssertion.sv Line: 39
# ** Error: Address changed before HREADY HIGH!
#    Time: 285 ns Started: 275 ns  Scope: AhbMasterAssertionTb.ahbmasterassertions_u File: /fetools/work_area/frontend/prakhyath/ahb_avip_loc/src//hdlTop/masterAgentBFM/AhbMasterAssertion.sv Line: 163 Expr: hready==0
# ** Info: HRESP is ERROR during error conditions
#    Time: 285 ns Started: 285 ns  Scope: AhbMasterAssertionTb.ahbmasterassertions_u File: /fetools/work_area/frontend/prakhyath/ahb_avip_loc/src//hdlTop/masterAgentBFM/AhbMasterAssertion.sv Line: 86
# ** Info: HREADY remains stable during wait states
#    Time: 285 ns Started: 275 ns  Scope: AhbMasterAssertionTb.ahbmasterassertions_u File: /fetools/work_area/frontend/prakhyath/ahb_avip_loc/src//hdlTop/masterAgentBFM/AhbMasterAssertion.sv Line: 95
# ** Info: HWDATA is Valid When HWRITE IS HIGH
#    Time: 295 ns Started: 285 ns  Scope: AhbMasterAssertionTb.ahbmasterassertions_u File: /fetools/work_area/frontend/prakhyath/ahb_avip_loc/src//hdlTop/masterAgentBFM/AhbMasterAssertion.sv Line: 39
# ** Info: Address stability during waited transfer verified.
#    Time: 295 ns Started: 285 ns  Scope: AhbMasterAssertionTb.ahbmasterassertions_u File: /fetools/work_area/frontend/prakhyath/ahb_avip_loc/src//hdlTop/masterAgentBFM/AhbMasterAssertion.sv Line: 162
# ** Error: HTRANS has an invalid value or transition!
#    Time: 295 ns Started: 295 ns  Scope: AhbMasterAssertionTb.ahbmasterassertions_u File: /fetools/work_area/frontend/prakhyath/ahb_avip_loc/src//hdlTop/masterAgentBFM/AhbMasterAssertion.sv Line: 49 Expr: hready
# ** Error: INCR burst type failed: Address not incremented correctly!
#    Time: 295 ns Started: 295 ns  Scope: AhbMasterAssertionTb.ahbmasterassertions_u File: /fetools/work_area/frontend/prakhyath/ahb_avip_loc/src//hdlTop/masterAgentBFM/AhbMasterAssertion.sv Line: 114 Expr: haddr==$past(haddr)+(1<<hsize)
# ** Error: HREADY unexpectedly changed when slave was not ready!
#    Time: 295 ns Started: 285 ns  Scope: AhbMasterAssertionTb.ahbmasterassertions_u File: /fetools/work_area/frontend/prakhyath/ahb_avip_loc/src//hdlTop/masterAgentBFM/AhbMasterAssertion.sv Line: 96 Expr: hready
# UVM_INFO /fetools/work_area/frontend/prakhyath/ahb_avip_loc/src//hvlTop/tb/AhbMasterAssertionTb.sv(281) @ 305: reporter [AhbMasterAssertionTb] Ensure HREADY remains stable during wait states Assertion Pass Task ended
# UVM_INFO /fetools/work_area/frontend/prakhyath/ahb_avip_loc/src//hvlTop/tb/AhbMasterAssertionTb.sv(285) @ 305: reporter [AhbMasterAssertionTb] Ensure HREADY remains stable during wait states Assertion Fail Task started
# ** Info: HRESP is ERROR during error conditions
#    Time: 305 ns Started: 305 ns  Scope: AhbMasterAssertionTb.ahbmasterassertions_u File: /fetools/work_area/frontend/prakhyath/ahb_avip_loc/src//hdlTop/masterAgentBFM/AhbMasterAssertion.sv Line: 86
# ** Error: HRESP is not OKAY for a successful transfer!
#    Time: 305 ns Started: 305 ns  Scope: AhbMasterAssertionTb.ahbmasterassertions_u File: /fetools/work_area/frontend/prakhyath/ahb_avip_loc/src//hdlTop/masterAgentBFM/AhbMasterAssertion.sv Line: 78 Expr: ~hresp
# ** Info: HADDR is within the valid range
#    Time: 305 ns Started: 305 ns  Scope: AhbMasterAssertionTb.ahbmasterassertions_u File: /fetools/work_area/frontend/prakhyath/ahb_avip_loc/src//hdlTop/masterAgentBFM/AhbMasterAssertion.sv Line: 68
# ** Error: HADDR is not aligned based on HSIZE!
#    Time: 305 ns Started: 305 ns  Scope: AhbMasterAssertionTb.ahbmasterassertions_u File: /fetools/work_area/frontend/prakhyath/ahb_avip_loc/src//hdlTop/masterAgentBFM/AhbMasterAssertion.sv Line: 59 Expr: hsize==2
# ** Error: Address changed before HREADY HIGH!
#    Time: 305 ns Started: 295 ns  Scope: AhbMasterAssertionTb.ahbmasterassertions_u File: /fetools/work_area/frontend/prakhyath/ahb_avip_loc/src//hdlTop/masterAgentBFM/AhbMasterAssertion.sv Line: 163 Expr: hready==0
# ** Info: HTRANS is Valid
#    Time: 305 ns Started: 305 ns  Scope: AhbMasterAssertionTb.ahbmasterassertions_u File: /fetools/work_area/frontend/prakhyath/ahb_avip_loc/src//hdlTop/masterAgentBFM/AhbMasterAssertion.sv Line: 48
# ** Error: INCR burst type failed: Address not incremented correctly!
#    Time: 305 ns Started: 305 ns  Scope: AhbMasterAssertionTb.ahbmasterassertions_u File: /fetools/work_area/frontend/prakhyath/ahb_avip_loc/src//hdlTop/masterAgentBFM/AhbMasterAssertion.sv Line: 114 Expr: haddr==$past(haddr)+(1<<hsize)
# ** Info: HRESP is ERROR during error conditions
#    Time: 315 ns Started: 315 ns  Scope: AhbMasterAssertionTb.ahbmasterassertions_u File: /fetools/work_area/frontend/prakhyath/ahb_avip_loc/src//hdlTop/masterAgentBFM/AhbMasterAssertion.sv Line: 86
# ** Info: HREADY remains stable during wait states
#    Time: 315 ns Started: 305 ns  Scope: AhbMasterAssertionTb.ahbmasterassertions_u File: /fetools/work_area/frontend/prakhyath/ahb_avip_loc/src//hdlTop/masterAgentBFM/AhbMasterAssertion.sv Line: 95
# ** Error: HRESP is not OKAY for a successful transfer!
#    Time: 315 ns Started: 315 ns  Scope: AhbMasterAssertionTb.ahbmasterassertions_u File: /fetools/work_area/frontend/prakhyath/ahb_avip_loc/src//hdlTop/masterAgentBFM/AhbMasterAssertion.sv Line: 78 Expr: ~hresp
# ** Info: HADDR is within the valid range
#    Time: 315 ns Started: 315 ns  Scope: AhbMasterAssertionTb.ahbmasterassertions_u File: /fetools/work_area/frontend/prakhyath/ahb_avip_loc/src//hdlTop/masterAgentBFM/AhbMasterAssertion.sv Line: 68
# ** Error: HADDR is not aligned based on HSIZE!
#    Time: 315 ns Started: 315 ns  Scope: AhbMasterAssertionTb.ahbmasterassertions_u File: /fetools/work_area/frontend/prakhyath/ahb_avip_loc/src//hdlTop/masterAgentBFM/AhbMasterAssertion.sv Line: 59 Expr: hsize==2
# ** Info: HWDATA is Valid When HWRITE IS HIGH
#    Time: 315 ns Started: 305 ns  Scope: AhbMasterAssertionTb.ahbmasterassertions_u File: /fetools/work_area/frontend/prakhyath/ahb_avip_loc/src//hdlTop/masterAgentBFM/AhbMasterAssertion.sv Line: 39
# ** Error: Address changed before HREADY HIGH!
#    Time: 315 ns Started: 305 ns  Scope: AhbMasterAssertionTb.ahbmasterassertions_u File: /fetools/work_area/frontend/prakhyath/ahb_avip_loc/src//hdlTop/masterAgentBFM/AhbMasterAssertion.sv Line: 163 Expr: hready==0
# ** Info: HTRANS is Valid
#    Time: 315 ns Started: 315 ns  Scope: AhbMasterAssertionTb.ahbmasterassertions_u File: /fetools/work_area/frontend/prakhyath/ahb_avip_loc/src//hdlTop/masterAgentBFM/AhbMasterAssertion.sv Line: 48
# ** Error: INCR burst type failed: Address not incremented correctly!
#    Time: 315 ns Started: 315 ns  Scope: AhbMasterAssertionTb.ahbmasterassertions_u File: /fetools/work_area/frontend/prakhyath/ahb_avip_loc/src//hdlTop/masterAgentBFM/AhbMasterAssertion.sv Line: 114 Expr: haddr==$past(haddr)+(1<<hsize)
# ** Error: HREADY unexpectedly changed when slave was not ready!
#    Time: 325 ns Started: 315 ns  Scope: AhbMasterAssertionTb.ahbmasterassertions_u File: /fetools/work_area/frontend/prakhyath/ahb_avip_loc/src//hdlTop/masterAgentBFM/AhbMasterAssertion.sv Line: 96 Expr: hready
# ** Info: HWDATA is Valid When HWRITE IS HIGH
#    Time: 325 ns Started: 315 ns  Scope: AhbMasterAssertionTb.ahbmasterassertions_u File: /fetools/work_area/frontend/prakhyath/ahb_avip_loc/src//hdlTop/masterAgentBFM/AhbMasterAssertion.sv Line: 39
# ** Info: Address stability during waited transfer verified.
#    Time: 325 ns Started: 315 ns  Scope: AhbMasterAssertionTb.ahbmasterassertions_u File: /fetools/work_area/frontend/prakhyath/ahb_avip_loc/src//hdlTop/masterAgentBFM/AhbMasterAssertion.sv Line: 162
# ** Error: HTRANS has an invalid value or transition!
#    Time: 325 ns Started: 325 ns  Scope: AhbMasterAssertionTb.ahbmasterassertions_u File: /fetools/work_area/frontend/prakhyath/ahb_avip_loc/src//hdlTop/masterAgentBFM/AhbMasterAssertion.sv Line: 49 Expr: hready
# ** Error: INCR burst type failed: Address not incremented correctly!
#    Time: 325 ns Started: 325 ns  Scope: AhbMasterAssertionTb.ahbmasterassertions_u File: /fetools/work_area/frontend/prakhyath/ahb_avip_loc/src//hdlTop/masterAgentBFM/AhbMasterAssertion.sv Line: 114 Expr: haddr==$past(haddr)+(1<<hsize)
# UVM_INFO /fetools/work_area/frontend/prakhyath/ahb_avip_loc/src//hvlTop/tb/AhbMasterAssertionTb.sv(291) @ 335: reporter [AhbMasterAssertionTb] Ensure HREADY remains stable during wait states Assertion Fail Task ended
# UVM_INFO /fetools/work_area/frontend/prakhyath/ahb_avip_loc/src//hvlTop/tb/AhbMasterAssertionTb.sv(295) @ 335: reporter [AhbMasterAssertionTb]  Ensure HMASTLOCK is asserted correctly during locked transfers Assertion Pass Task started
# ** Info: Address stability during waited transfer verified.
#    Time: 335 ns Started: 325 ns  Scope: AhbMasterAssertionTb.ahbmasterassertions_u File: /fetools/work_area/frontend/prakhyath/ahb_avip_loc/src//hdlTop/masterAgentBFM/AhbMasterAssertion.sv Line: 162
# ** Error: HTRANS has an invalid value or transition!
#    Time: 335 ns Started: 335 ns  Scope: AhbMasterAssertionTb.ahbmasterassertions_u File: /fetools/work_area/frontend/prakhyath/ahb_avip_loc/src//hdlTop/masterAgentBFM/AhbMasterAssertion.sv Line: 49 Expr: hready
# ** Error: INCR burst type failed: Address not incremented correctly!
#    Time: 335 ns Started: 335 ns  Scope: AhbMasterAssertionTb.ahbmasterassertions_u File: /fetools/work_area/frontend/prakhyath/ahb_avip_loc/src//hdlTop/masterAgentBFM/AhbMasterAssertion.sv Line: 114 Expr: haddr==$past(haddr)+(1<<hsize)
# ** Info: Address stability during waited transfer verified.
#    Time: 345 ns Started: 335 ns  Scope: AhbMasterAssertionTb.ahbmasterassertions_u File: /fetools/work_area/frontend/prakhyath/ahb_avip_loc/src//hdlTop/masterAgentBFM/AhbMasterAssertion.sv Line: 162
# ** Error: HTRANS has an invalid value or transition!
#    Time: 345 ns Started: 345 ns  Scope: AhbMasterAssertionTb.ahbmasterassertions_u File: /fetools/work_area/frontend/prakhyath/ahb_avip_loc/src//hdlTop/masterAgentBFM/AhbMasterAssertion.sv Line: 49 Expr: hready
# ** Error: INCR burst type failed: Address not incremented correctly!
#    Time: 345 ns Started: 345 ns  Scope: AhbMasterAssertionTb.ahbmasterassertions_u File: /fetools/work_area/frontend/prakhyath/ahb_avip_loc/src//hdlTop/masterAgentBFM/AhbMasterAssertion.sv Line: 114 Expr: haddr==$past(haddr)+(1<<hsize)
# UVM_INFO /fetools/work_area/frontend/prakhyath/ahb_avip_loc/src//hvlTop/tb/AhbMasterAssertionTb.sv(303) @ 355: reporter [AhbMasterAssertionTb]  Ensure HMASTLOCK is asserted correctly during locked transfers Assertion Pass Task ended
# UVM_INFO /fetools/work_area/frontend/prakhyath/ahb_avip_loc/src//hvlTop/tb/AhbMasterAssertionTb.sv(307) @ 355: reporter [AhbMasterAssertionTb]  Ensure HMASTLOCK is asserted correctly during locked transfers Assertion Fail Task started
# ** Error: HRESP is not OKAY for a successful transfer!
#    Time: 355 ns Started: 355 ns  Scope: AhbMasterAssertionTb.ahbmasterassertions_u File: /fetools/work_area/frontend/prakhyath/ahb_avip_loc/src//hdlTop/masterAgentBFM/AhbMasterAssertion.sv Line: 78 Expr: ~hresp
# ** Info: HRESP is ERROR during error conditions
#    Time: 355 ns Started: 355 ns  Scope: AhbMasterAssertionTb.ahbmasterassertions_u File: /fetools/work_area/frontend/prakhyath/ahb_avip_loc/src//hdlTop/masterAgentBFM/AhbMasterAssertion.sv Line: 86
# ** Info: HMASTLOCK is asserted during a locked transfer
#    Time: 355 ns Started: 355 ns  Scope: AhbMasterAssertionTb.ahbmasterassertions_u File: /fetools/work_area/frontend/prakhyath/ahb_avip_loc/src//hdlTop/masterAgentBFM/AhbMasterAssertion.sv Line: 104
# ** Info: HADDR is within the valid range
#    Time: 355 ns Started: 355 ns  Scope: AhbMasterAssertionTb.ahbmasterassertions_u File: /fetools/work_area/frontend/prakhyath/ahb_avip_loc/src//hdlTop/masterAgentBFM/AhbMasterAssertion.sv Line: 68
# ** Info: HADDR is aligned based on HSIZE
#    Time: 355 ns Started: 355 ns  Scope: AhbMasterAssertionTb.ahbmasterassertions_u File: /fetools/work_area/frontend/prakhyath/ahb_avip_loc/src//hdlTop/masterAgentBFM/AhbMasterAssertion.sv Line: 58
# ** Error: Address changed before HREADY HIGH!
#    Time: 355 ns Started: 345 ns  Scope: AhbMasterAssertionTb.ahbmasterassertions_u File: /fetools/work_area/frontend/prakhyath/ahb_avip_loc/src//hdlTop/masterAgentBFM/AhbMasterAssertion.sv Line: 163 Expr: $stable(haddr)
# ** Info: HTRANS is Valid
#    Time: 355 ns Started: 355 ns  Scope: AhbMasterAssertionTb.ahbmasterassertions_u File: /fetools/work_area/frontend/prakhyath/ahb_avip_loc/src//hdlTop/masterAgentBFM/AhbMasterAssertion.sv Line: 48
# ** Error: INCR burst type failed: Address not incremented correctly!
#    Time: 355 ns Started: 355 ns  Scope: AhbMasterAssertionTb.ahbmasterassertions_u File: /fetools/work_area/frontend/prakhyath/ahb_avip_loc/src//hdlTop/masterAgentBFM/AhbMasterAssertion.sv Line: 114 Expr: haddr==$past(haddr)+(1<<hsize)
# ** Error: HRESP is not OKAY for a successful transfer!
#    Time: 365 ns Started: 365 ns  Scope: AhbMasterAssertionTb.ahbmasterassertions_u File: /fetools/work_area/frontend/prakhyath/ahb_avip_loc/src//hdlTop/masterAgentBFM/AhbMasterAssertion.sv Line: 78 Expr: ~hresp
# ** Info: HRESP is ERROR during error conditions
#    Time: 365 ns Started: 365 ns  Scope: AhbMasterAssertionTb.ahbmasterassertions_u File: /fetools/work_area/frontend/prakhyath/ahb_avip_loc/src//hdlTop/masterAgentBFM/AhbMasterAssertion.sv Line: 86
# ** Info: HREADY remains stable during wait states
#    Time: 365 ns Started: 355 ns  Scope: AhbMasterAssertionTb.ahbmasterassertions_u File: /fetools/work_area/frontend/prakhyath/ahb_avip_loc/src//hdlTop/masterAgentBFM/AhbMasterAssertion.sv Line: 95
# ** Info: HMASTLOCK is asserted during a locked transfer
#    Time: 365 ns Started: 365 ns  Scope: AhbMasterAssertionTb.ahbmasterassertions_u File: /fetools/work_area/frontend/prakhyath/ahb_avip_loc/src//hdlTop/masterAgentBFM/AhbMasterAssertion.sv Line: 104
# ** Info: HADDR is within the valid range
#    Time: 365 ns Started: 365 ns  Scope: AhbMasterAssertionTb.ahbmasterassertions_u File: /fetools/work_area/frontend/prakhyath/ahb_avip_loc/src//hdlTop/masterAgentBFM/AhbMasterAssertion.sv Line: 68
# ** Info: HADDR is aligned based on HSIZE
#    Time: 365 ns Started: 365 ns  Scope: AhbMasterAssertionTb.ahbmasterassertions_u File: /fetools/work_area/frontend/prakhyath/ahb_avip_loc/src//hdlTop/masterAgentBFM/AhbMasterAssertion.sv Line: 58
# ** Info: HWDATA is Valid When HWRITE IS HIGH
#    Time: 365 ns Started: 355 ns  Scope: AhbMasterAssertionTb.ahbmasterassertions_u File: /fetools/work_area/frontend/prakhyath/ahb_avip_loc/src//hdlTop/masterAgentBFM/AhbMasterAssertion.sv Line: 39
# ** Error: Address changed before HREADY HIGH!
#    Time: 365 ns Started: 355 ns  Scope: AhbMasterAssertionTb.ahbmasterassertions_u File: /fetools/work_area/frontend/prakhyath/ahb_avip_loc/src//hdlTop/masterAgentBFM/AhbMasterAssertion.sv Line: 163 Expr: hready==0
# ** Info: HTRANS is Valid
#    Time: 365 ns Started: 365 ns  Scope: AhbMasterAssertionTb.ahbmasterassertions_u File: /fetools/work_area/frontend/prakhyath/ahb_avip_loc/src//hdlTop/masterAgentBFM/AhbMasterAssertion.sv Line: 48
# ** Error: INCR burst type failed: Address not incremented correctly!
#    Time: 365 ns Started: 365 ns  Scope: AhbMasterAssertionTb.ahbmasterassertions_u File: /fetools/work_area/frontend/prakhyath/ahb_avip_loc/src//hdlTop/masterAgentBFM/AhbMasterAssertion.sv Line: 114 Expr: haddr==$past(haddr)+(1<<hsize)
# ** Info: HRESP is ERROR during error conditions
#    Time: 375 ns Started: 375 ns  Scope: AhbMasterAssertionTb.ahbmasterassertions_u File: /fetools/work_area/frontend/prakhyath/ahb_avip_loc/src//hdlTop/masterAgentBFM/AhbMasterAssertion.sv Line: 86
# ** Info: HREADY remains stable during wait states
#    Time: 375 ns Started: 365 ns  Scope: AhbMasterAssertionTb.ahbmasterassertions_u File: /fetools/work_area/frontend/prakhyath/ahb_avip_loc/src//hdlTop/masterAgentBFM/AhbMasterAssertion.sv Line: 95
# ** Error: HRESP is not OKAY for a successful transfer!
#    Time: 375 ns Started: 375 ns  Scope: AhbMasterAssertionTb.ahbmasterassertions_u File: /fetools/work_area/frontend/prakhyath/ahb_avip_loc/src//hdlTop/masterAgentBFM/AhbMasterAssertion.sv Line: 78 Expr: ~hresp
# ** Info: HADDR is within the valid range
#    Time: 375 ns Started: 375 ns  Scope: AhbMasterAssertionTb.ahbmasterassertions_u File: /fetools/work_area/frontend/prakhyath/ahb_avip_loc/src//hdlTop/masterAgentBFM/AhbMasterAssertion.sv Line: 68
# ** Info: HADDR is aligned based on HSIZE
#    Time: 375 ns Started: 375 ns  Scope: AhbMasterAssertionTb.ahbmasterassertions_u File: /fetools/work_area/frontend/prakhyath/ahb_avip_loc/src//hdlTop/masterAgentBFM/AhbMasterAssertion.sv Line: 58
# ** Info: HWDATA is Valid When HWRITE IS HIGH
#    Time: 375 ns Started: 365 ns  Scope: AhbMasterAssertionTb.ahbmasterassertions_u File: /fetools/work_area/frontend/prakhyath/ahb_avip_loc/src//hdlTop/masterAgentBFM/AhbMasterAssertion.sv Line: 39
# ** Error: Address changed before HREADY HIGH!
#    Time: 375 ns Started: 365 ns  Scope: AhbMasterAssertionTb.ahbmasterassertions_u File: /fetools/work_area/frontend/prakhyath/ahb_avip_loc/src//hdlTop/masterAgentBFM/AhbMasterAssertion.sv Line: 163 Expr: hready==0
# ** Info: HTRANS is Valid
#    Time: 375 ns Started: 375 ns  Scope: AhbMasterAssertionTb.ahbmasterassertions_u File: /fetools/work_area/frontend/prakhyath/ahb_avip_loc/src//hdlTop/masterAgentBFM/AhbMasterAssertion.sv Line: 48
# ** Error: INCR burst type failed: Address not incremented correctly!
#    Time: 375 ns Started: 375 ns  Scope: AhbMasterAssertionTb.ahbmasterassertions_u File: /fetools/work_area/frontend/prakhyath/ahb_avip_loc/src//hdlTop/masterAgentBFM/AhbMasterAssertion.sv Line: 114 Expr: haddr==$past(haddr)+(1<<hsize)
# UVM_INFO /fetools/work_area/frontend/prakhyath/ahb_avip_loc/src//hvlTop/tb/AhbMasterAssertionTb.sv(317) @ 385: reporter [AhbMasterAssertionTb]  Ensure HMASTLOCK is asserted correctly during locked transfers Assertion Fail Task ended
# UVM_INFO /fetools/work_area/frontend/prakhyath/ahb_avip_loc/src//hvlTop/tb/AhbMasterAssertionTb.sv(321) @ 385: reporter [AhbMasterAssertionTb] Check for WRAP (wrapping burst) AssertionPass Task started
# ** Info: HRESP is ERROR during error conditions
#    Time: 385 ns Started: 385 ns  Scope: AhbMasterAssertionTb.ahbmasterassertions_u File: /fetools/work_area/frontend/prakhyath/ahb_avip_loc/src//hdlTop/masterAgentBFM/AhbMasterAssertion.sv Line: 86
# ** Info: HREADY remains stable during wait states
#    Time: 385 ns Started: 375 ns  Scope: AhbMasterAssertionTb.ahbmasterassertions_u File: /fetools/work_area/frontend/prakhyath/ahb_avip_loc/src//hdlTop/masterAgentBFM/AhbMasterAssertion.sv Line: 95
# ** Error: HRESP is not OKAY for a successful transfer!
#    Time: 385 ns Started: 385 ns  Scope: AhbMasterAssertionTb.ahbmasterassertions_u File: /fetools/work_area/frontend/prakhyath/ahb_avip_loc/src//hdlTop/masterAgentBFM/AhbMasterAssertion.sv Line: 78 Expr: ~hresp
# ** Info: HADDR is within the valid range
#    Time: 385 ns Started: 385 ns  Scope: AhbMasterAssertionTb.ahbmasterassertions_u File: /fetools/work_area/frontend/prakhyath/ahb_avip_loc/src//hdlTop/masterAgentBFM/AhbMasterAssertion.sv Line: 68
# ** Info: HADDR is aligned based on HSIZE
#    Time: 385 ns Started: 385 ns  Scope: AhbMasterAssertionTb.ahbmasterassertions_u File: /fetools/work_area/frontend/prakhyath/ahb_avip_loc/src//hdlTop/masterAgentBFM/AhbMasterAssertion.sv Line: 58
# ** Info: HWDATA is Valid When HWRITE IS HIGH
#    Time: 385 ns Started: 375 ns  Scope: AhbMasterAssertionTb.ahbmasterassertions_u File: /fetools/work_area/frontend/prakhyath/ahb_avip_loc/src//hdlTop/masterAgentBFM/AhbMasterAssertion.sv Line: 39
# ** Error: Address changed before HREADY HIGH!
#    Time: 385 ns Started: 375 ns  Scope: AhbMasterAssertionTb.ahbmasterassertions_u File: /fetools/work_area/frontend/prakhyath/ahb_avip_loc/src//hdlTop/masterAgentBFM/AhbMasterAssertion.sv Line: 163 Expr: hready==0
# ** Info: HTRANS is Valid
#    Time: 385 ns Started: 385 ns  Scope: AhbMasterAssertionTb.ahbmasterassertions_u File: /fetools/work_area/frontend/prakhyath/ahb_avip_loc/src//hdlTop/masterAgentBFM/AhbMasterAssertion.sv Line: 48
# ** Error: INCR burst type failed: Address not incremented correctly!
#    Time: 385 ns Started: 385 ns  Scope: AhbMasterAssertionTb.ahbmasterassertions_u File: /fetools/work_area/frontend/prakhyath/ahb_avip_loc/src//hdlTop/masterAgentBFM/AhbMasterAssertion.sv Line: 114 Expr: haddr==$past(haddr)+(1<<hsize)
# ** Info: HRESP is ERROR during error conditions
#    Time: 395 ns Started: 395 ns  Scope: AhbMasterAssertionTb.ahbmasterassertions_u File: /fetools/work_area/frontend/prakhyath/ahb_avip_loc/src//hdlTop/masterAgentBFM/AhbMasterAssertion.sv Line: 86
# ** Info: HREADY remains stable during wait states
#    Time: 395 ns Started: 385 ns  Scope: AhbMasterAssertionTb.ahbmasterassertions_u File: /fetools/work_area/frontend/prakhyath/ahb_avip_loc/src//hdlTop/masterAgentBFM/AhbMasterAssertion.sv Line: 95
# ** Error: HRESP is not OKAY for a successful transfer!
#    Time: 395 ns Started: 395 ns  Scope: AhbMasterAssertionTb.ahbmasterassertions_u File: /fetools/work_area/frontend/prakhyath/ahb_avip_loc/src//hdlTop/masterAgentBFM/AhbMasterAssertion.sv Line: 78 Expr: ~hresp
# ** Info: HADDR is within the valid range
#    Time: 395 ns Started: 395 ns  Scope: AhbMasterAssertionTb.ahbmasterassertions_u File: /fetools/work_area/frontend/prakhyath/ahb_avip_loc/src//hdlTop/masterAgentBFM/AhbMasterAssertion.sv Line: 68
# ** Info: HADDR is aligned based on HSIZE
#    Time: 395 ns Started: 395 ns  Scope: AhbMasterAssertionTb.ahbmasterassertions_u File: /fetools/work_area/frontend/prakhyath/ahb_avip_loc/src//hdlTop/masterAgentBFM/AhbMasterAssertion.sv Line: 58
# ** Info: HWDATA is Valid When HWRITE IS HIGH
#    Time: 395 ns Started: 385 ns  Scope: AhbMasterAssertionTb.ahbmasterassertions_u File: /fetools/work_area/frontend/prakhyath/ahb_avip_loc/src//hdlTop/masterAgentBFM/AhbMasterAssertion.sv Line: 39
# ** Error: Address changed before HREADY HIGH!
#    Time: 395 ns Started: 385 ns  Scope: AhbMasterAssertionTb.ahbmasterassertions_u File: /fetools/work_area/frontend/prakhyath/ahb_avip_loc/src//hdlTop/masterAgentBFM/AhbMasterAssertion.sv Line: 163 Expr: hready==0
# ** Info: HTRANS is Valid
#    Time: 395 ns Started: 395 ns  Scope: AhbMasterAssertionTb.ahbmasterassertions_u File: /fetools/work_area/frontend/prakhyath/ahb_avip_loc/src//hdlTop/masterAgentBFM/AhbMasterAssertion.sv Line: 48
# ** Error: INCR burst type failed: Address not incremented correctly!
#    Time: 395 ns Started: 395 ns  Scope: AhbMasterAssertionTb.ahbmasterassertions_u File: /fetools/work_area/frontend/prakhyath/ahb_avip_loc/src//hdlTop/masterAgentBFM/AhbMasterAssertion.sv Line: 114 Expr: haddr==$past(haddr)+(1<<hsize)
# UVM_INFO /fetools/work_area/frontend/prakhyath/ahb_avip_loc/src//hvlTop/tb/AhbMasterAssertionTb.sv(330) @ 405: reporter [AhbMasterAssertionTb] Check for WRAP (wrapping burst) AssertionPass Task ended
# UVM_INFO /fetools/work_area/frontend/prakhyath/ahb_avip_loc/src//hvlTop/tb/AhbMasterAssertionTb.sv(334) @ 405: reporter [AhbMasterAssertionTb] Check for WRAP (wrapping burst) AssertionFail Task started
# ** Info: HRESP is ERROR during error conditions
#    Time: 405 ns Started: 405 ns  Scope: AhbMasterAssertionTb.ahbmasterassertions_u File: /fetools/work_area/frontend/prakhyath/ahb_avip_loc/src//hdlTop/masterAgentBFM/AhbMasterAssertion.sv Line: 86
# ** Info: HREADY remains stable during wait states
#    Time: 405 ns Started: 395 ns  Scope: AhbMasterAssertionTb.ahbmasterassertions_u File: /fetools/work_area/frontend/prakhyath/ahb_avip_loc/src//hdlTop/masterAgentBFM/AhbMasterAssertion.sv Line: 95
# ** Error: HRESP is not OKAY for a successful transfer!
#    Time: 405 ns Started: 405 ns  Scope: AhbMasterAssertionTb.ahbmasterassertions_u File: /fetools/work_area/frontend/prakhyath/ahb_avip_loc/src//hdlTop/masterAgentBFM/AhbMasterAssertion.sv Line: 78 Expr: ~hresp
# ** Info: HADDR is within the valid range
#    Time: 405 ns Started: 405 ns  Scope: AhbMasterAssertionTb.ahbmasterassertions_u File: /fetools/work_area/frontend/prakhyath/ahb_avip_loc/src//hdlTop/masterAgentBFM/AhbMasterAssertion.sv Line: 68
# ** Info: HADDR is aligned based on HSIZE
#    Time: 405 ns Started: 405 ns  Scope: AhbMasterAssertionTb.ahbmasterassertions_u File: /fetools/work_area/frontend/prakhyath/ahb_avip_loc/src//hdlTop/masterAgentBFM/AhbMasterAssertion.sv Line: 58
# ** Info: HWDATA is Valid When HWRITE IS HIGH
#    Time: 405 ns Started: 395 ns  Scope: AhbMasterAssertionTb.ahbmasterassertions_u File: /fetools/work_area/frontend/prakhyath/ahb_avip_loc/src//hdlTop/masterAgentBFM/AhbMasterAssertion.sv Line: 39
# ** Error: Address changed before HREADY HIGH!
#    Time: 405 ns Started: 395 ns  Scope: AhbMasterAssertionTb.ahbmasterassertions_u File: /fetools/work_area/frontend/prakhyath/ahb_avip_loc/src//hdlTop/masterAgentBFM/AhbMasterAssertion.sv Line: 163 Expr: hready==0
# ** Info: HTRANS is Valid
#    Time: 405 ns Started: 405 ns  Scope: AhbMasterAssertionTb.ahbmasterassertions_u File: /fetools/work_area/frontend/prakhyath/ahb_avip_loc/src//hdlTop/masterAgentBFM/AhbMasterAssertion.sv Line: 48
# ** Info: WRAP burst type passed: Address wrapping is done correctly
#    Time: 405 ns Started: 405 ns  Scope: AhbMasterAssertionTb.ahbmasterassertions_u File: /fetools/work_area/frontend/prakhyath/ahb_avip_loc/src//hdlTop/masterAgentBFM/AhbMasterAssertion.sv Line: 123
# ** Info: HRESP is ERROR during error conditions
#    Time: 415 ns Started: 415 ns  Scope: AhbMasterAssertionTb.ahbmasterassertions_u File: /fetools/work_area/frontend/prakhyath/ahb_avip_loc/src//hdlTop/masterAgentBFM/AhbMasterAssertion.sv Line: 86
# ** Info: HREADY remains stable during wait states
#    Time: 415 ns Started: 405 ns  Scope: AhbMasterAssertionTb.ahbmasterassertions_u File: /fetools/work_area/frontend/prakhyath/ahb_avip_loc/src//hdlTop/masterAgentBFM/AhbMasterAssertion.sv Line: 95
# ** Error: HRESP is not OKAY for a successful transfer!
#    Time: 415 ns Started: 415 ns  Scope: AhbMasterAssertionTb.ahbmasterassertions_u File: /fetools/work_area/frontend/prakhyath/ahb_avip_loc/src//hdlTop/masterAgentBFM/AhbMasterAssertion.sv Line: 78 Expr: ~hresp
# ** Info: HADDR is within the valid range
#    Time: 415 ns Started: 415 ns  Scope: AhbMasterAssertionTb.ahbmasterassertions_u File: /fetools/work_area/frontend/prakhyath/ahb_avip_loc/src//hdlTop/masterAgentBFM/AhbMasterAssertion.sv Line: 68
# ** Info: HADDR is aligned based on HSIZE
#    Time: 415 ns Started: 415 ns  Scope: AhbMasterAssertionTb.ahbmasterassertions_u File: /fetools/work_area/frontend/prakhyath/ahb_avip_loc/src//hdlTop/masterAgentBFM/AhbMasterAssertion.sv Line: 58
# ** Info: HWDATA is Valid When HWRITE IS HIGH
#    Time: 415 ns Started: 405 ns  Scope: AhbMasterAssertionTb.ahbmasterassertions_u File: /fetools/work_area/frontend/prakhyath/ahb_avip_loc/src//hdlTop/masterAgentBFM/AhbMasterAssertion.sv Line: 39
# ** Error: Address changed before HREADY HIGH!
#    Time: 415 ns Started: 405 ns  Scope: AhbMasterAssertionTb.ahbmasterassertions_u File: /fetools/work_area/frontend/prakhyath/ahb_avip_loc/src//hdlTop/masterAgentBFM/AhbMasterAssertion.sv Line: 163 Expr: hready==0
# ** Info: HTRANS is Valid
#    Time: 415 ns Started: 415 ns  Scope: AhbMasterAssertionTb.ahbmasterassertions_u File: /fetools/work_area/frontend/prakhyath/ahb_avip_loc/src//hdlTop/masterAgentBFM/AhbMasterAssertion.sv Line: 48
# ** Info: WRAP burst type passed: Address wrapping is done correctly
#    Time: 415 ns Started: 415 ns  Scope: AhbMasterAssertionTb.ahbmasterassertions_u File: /fetools/work_area/frontend/prakhyath/ahb_avip_loc/src//hdlTop/masterAgentBFM/AhbMasterAssertion.sv Line: 123
# UVM_INFO /fetools/work_area/frontend/prakhyath/ahb_avip_loc/src//hvlTop/tb/AhbMasterAssertionTb.sv(343) @ 425: reporter [AhbMasterAssertionTb] Check for WRAP (wrapping burst) AssertionPass Task ended
# UVM_INFO /fetools/work_area/frontend/prakhyath/ahb_avip_loc/src//hvlTop/tb/AhbMasterAssertionTb.sv(347) @ 425: reporter [AhbMasterAssertionTb]                  425 Check Trans Busy To Seq AssertionPass Task started
# ** Info: HRESP is ERROR during error conditions
#    Time: 425 ns Started: 425 ns  Scope: AhbMasterAssertionTb.ahbmasterassertions_u File: /fetools/work_area/frontend/prakhyath/ahb_avip_loc/src//hdlTop/masterAgentBFM/AhbMasterAssertion.sv Line: 86
# ** Info: HREADY remains stable during wait states
#    Time: 425 ns Started: 415 ns  Scope: AhbMasterAssertionTb.ahbmasterassertions_u File: /fetools/work_area/frontend/prakhyath/ahb_avip_loc/src//hdlTop/masterAgentBFM/AhbMasterAssertion.sv Line: 95
# ** Error: HRESP is not OKAY for a successful transfer!
#    Time: 425 ns Started: 425 ns  Scope: AhbMasterAssertionTb.ahbmasterassertions_u File: /fetools/work_area/frontend/prakhyath/ahb_avip_loc/src//hdlTop/masterAgentBFM/AhbMasterAssertion.sv Line: 78 Expr: ~hresp
# ** Info: HADDR is within the valid range
#    Time: 425 ns Started: 425 ns  Scope: AhbMasterAssertionTb.ahbmasterassertions_u File: /fetools/work_area/frontend/prakhyath/ahb_avip_loc/src//hdlTop/masterAgentBFM/AhbMasterAssertion.sv Line: 68
# ** Error: HADDR is not aligned based on HSIZE!
#    Time: 425 ns Started: 425 ns  Scope: AhbMasterAssertionTb.ahbmasterassertions_u File: /fetools/work_area/frontend/prakhyath/ahb_avip_loc/src//hdlTop/masterAgentBFM/AhbMasterAssertion.sv Line: 59 Expr: hsize==2
# ** Info: HWDATA is Valid When HWRITE IS HIGH
#    Time: 425 ns Started: 415 ns  Scope: AhbMasterAssertionTb.ahbmasterassertions_u File: /fetools/work_area/frontend/prakhyath/ahb_avip_loc/src//hdlTop/masterAgentBFM/AhbMasterAssertion.sv Line: 39
# ** Error: Address changed before HREADY HIGH!
#    Time: 425 ns Started: 415 ns  Scope: AhbMasterAssertionTb.ahbmasterassertions_u File: /fetools/work_area/frontend/prakhyath/ahb_avip_loc/src//hdlTop/masterAgentBFM/AhbMasterAssertion.sv Line: 163 Expr: $stable(haddr)
# ** Info: HTRANS is Valid
#    Time: 425 ns Started: 425 ns  Scope: AhbMasterAssertionTb.ahbmasterassertions_u File: /fetools/work_area/frontend/prakhyath/ahb_avip_loc/src//hdlTop/masterAgentBFM/AhbMasterAssertion.sv Line: 48
# ** Error: WRAP burst type failed: Address wrapping incorrect!
#    Time: 425 ns Started: 425 ns  Scope: AhbMasterAssertionTb.ahbmasterassertions_u File: /fetools/work_area/frontend/prakhyath/ahb_avip_loc/src//hdlTop/masterAgentBFM/AhbMasterAssertion.sv Line: 124 Expr: haddr==$past(haddr)+(1<<hsize)
# ** Info: HRESP is ERROR during error conditions
#    Time: 435 ns Started: 435 ns  Scope: AhbMasterAssertionTb.ahbmasterassertions_u File: /fetools/work_area/frontend/prakhyath/ahb_avip_loc/src//hdlTop/masterAgentBFM/AhbMasterAssertion.sv Line: 86
# ** Info: HREADY remains stable during wait states
#    Time: 435 ns Started: 425 ns  Scope: AhbMasterAssertionTb.ahbmasterassertions_u File: /fetools/work_area/frontend/prakhyath/ahb_avip_loc/src//hdlTop/masterAgentBFM/AhbMasterAssertion.sv Line: 95
# ** Error: HRESP is not OKAY for a successful transfer!
#    Time: 435 ns Started: 435 ns  Scope: AhbMasterAssertionTb.ahbmasterassertions_u File: /fetools/work_area/frontend/prakhyath/ahb_avip_loc/src//hdlTop/masterAgentBFM/AhbMasterAssertion.sv Line: 78 Expr: ~hresp
# ** Info: HADDR is within the valid range
#    Time: 435 ns Started: 435 ns  Scope: AhbMasterAssertionTb.ahbmasterassertions_u File: /fetools/work_area/frontend/prakhyath/ahb_avip_loc/src//hdlTop/masterAgentBFM/AhbMasterAssertion.sv Line: 68
# ** Error: HADDR is not aligned based on HSIZE!
#    Time: 435 ns Started: 435 ns  Scope: AhbMasterAssertionTb.ahbmasterassertions_u File: /fetools/work_area/frontend/prakhyath/ahb_avip_loc/src//hdlTop/masterAgentBFM/AhbMasterAssertion.sv Line: 59 Expr: hsize==2
# ** Info: HWDATA is Valid When HWRITE IS HIGH
#    Time: 435 ns Started: 425 ns  Scope: AhbMasterAssertionTb.ahbmasterassertions_u File: /fetools/work_area/frontend/prakhyath/ahb_avip_loc/src//hdlTop/masterAgentBFM/AhbMasterAssertion.sv Line: 39
# ** Error: Address changed before HREADY HIGH!
#    Time: 435 ns Started: 425 ns  Scope: AhbMasterAssertionTb.ahbmasterassertions_u File: /fetools/work_area/frontend/prakhyath/ahb_avip_loc/src//hdlTop/masterAgentBFM/AhbMasterAssertion.sv Line: 163 Expr: hready==0
# ** Info: HTRANS is Valid
#    Time: 435 ns Started: 435 ns  Scope: AhbMasterAssertionTb.ahbmasterassertions_u File: /fetools/work_area/frontend/prakhyath/ahb_avip_loc/src//hdlTop/masterAgentBFM/AhbMasterAssertion.sv Line: 48
# ** Error: WRAP burst type failed: Address wrapping incorrect!
#    Time: 435 ns Started: 435 ns  Scope: AhbMasterAssertionTb.ahbmasterassertions_u File: /fetools/work_area/frontend/prakhyath/ahb_avip_loc/src//hdlTop/masterAgentBFM/AhbMasterAssertion.sv Line: 124 Expr: haddr==$past(haddr)+(1<<hsize)
# ** Error: Address changed before HREADY HIGH!
#    Time: 445 ns Started: 435 ns  Scope: AhbMasterAssertionTb.ahbmasterassertions_u File: /fetools/work_area/frontend/prakhyath/ahb_avip_loc/src//hdlTop/masterAgentBFM/AhbMasterAssertion.sv Line: 163 Expr: $stable(haddr)
# ** Info: HWDATA is Valid When HWRITE IS HIGH
#    Time: 445 ns Started: 435 ns  Scope: AhbMasterAssertionTb.ahbmasterassertions_u File: /fetools/work_area/frontend/prakhyath/ahb_avip_loc/src//hdlTop/masterAgentBFM/AhbMasterAssertion.sv Line: 39
# ** Error: HREADY unexpectedly changed when slave was not ready!
#    Time: 445 ns Started: 435 ns  Scope: AhbMasterAssertionTb.ahbmasterassertions_u File: /fetools/work_area/frontend/prakhyath/ahb_avip_loc/src//hdlTop/masterAgentBFM/AhbMasterAssertion.sv Line: 96 Expr: hready
# UVM_INFO /fetools/work_area/frontend/prakhyath/ahb_avip_loc/src//hvlTop/tb/AhbMasterAssertionTb.sv(358) @ 455: reporter [AhbMasterAssertionTb]                  455 Check Trans Busy To Seq AssertionPass Task ended
# UVM_INFO /fetools/work_area/frontend/prakhyath/ahb_avip_loc/src//hvlTop/tb/AhbMasterAssertionTb.sv(362) @ 455: reporter [AhbMasterAssertionTb]                  455 Check Trans Busy To Seq AssertionFail Task started
# ** Error: HTRANS has an invalid value or transition!
#    Time: 455 ns Started: 455 ns  Scope: AhbMasterAssertionTb.ahbmasterassertions_u File: /fetools/work_area/frontend/prakhyath/ahb_avip_loc/src//hdlTop/masterAgentBFM/AhbMasterAssertion.sv Line: 49 Expr: hready
# ** Info: Transition from BUSY to SEQ passed
#    Time: 455 ns Started: 445 ns  Scope: AhbMasterAssertionTb.ahbmasterassertions_u File: /fetools/work_area/frontend/prakhyath/ahb_avip_loc/src//hdlTop/masterAgentBFM/AhbMasterAssertion.sv Line: 133
# ** Info: Address stability during waited transfer verified.
#    Time: 465 ns Started: 455 ns  Scope: AhbMasterAssertionTb.ahbmasterassertions_u File: /fetools/work_area/frontend/prakhyath/ahb_avip_loc/src//hdlTop/masterAgentBFM/AhbMasterAssertion.sv Line: 162
# ** Error: HTRANS has an invalid value or transition!
#    Time: 465 ns Started: 465 ns  Scope: AhbMasterAssertionTb.ahbmasterassertions_u File: /fetools/work_area/frontend/prakhyath/ahb_avip_loc/src//hdlTop/masterAgentBFM/AhbMasterAssertion.sv Line: 49 Expr: hready
# ** Info: Address stability during waited transfer verified.
#    Time: 475 ns Started: 465 ns  Scope: AhbMasterAssertionTb.ahbmasterassertions_u File: /fetools/work_area/frontend/prakhyath/ahb_avip_loc/src//hdlTop/masterAgentBFM/AhbMasterAssertion.sv Line: 162
# UVM_INFO /fetools/work_area/frontend/prakhyath/ahb_avip_loc/src//hvlTop/tb/AhbMasterAssertionTb.sv(374) @ 485: reporter [AhbMasterAssertionTb]                  485 Check Trans Busy To Seq AssertionFail Task ended
# UVM_INFO /fetools/work_area/frontend/prakhyath/ahb_avip_loc/src//hvlTop/tb/AhbMasterAssertionTb.sv(378) @ 485: reporter [AhbMasterAssertionTb]                  485 Check Trans Busy To Non-Seq AssertionPass Task started
# ** Error: HTRANS has an invalid value or transition!
#    Time: 485 ns Started: 485 ns  Scope: AhbMasterAssertionTb.ahbmasterassertions_u File: /fetools/work_area/frontend/prakhyath/ahb_avip_loc/src//hdlTop/masterAgentBFM/AhbMasterAssertion.sv Line: 49 Expr: hready
# ** Error: Transition from BUSY to SEQ failed: Conditions not met!
#    Time: 485 ns Started: 475 ns  Scope: AhbMasterAssertionTb.ahbmasterassertions_u File: /fetools/work_area/frontend/prakhyath/ahb_avip_loc/src//hdlTop/masterAgentBFM/AhbMasterAssertion.sv Line: 134 Expr: $stable(hburst)
# ** Info: Address stability during waited transfer verified.
#    Time: 495 ns Started: 485 ns  Scope: AhbMasterAssertionTb.ahbmasterassertions_u File: /fetools/work_area/frontend/prakhyath/ahb_avip_loc/src//hdlTop/masterAgentBFM/AhbMasterAssertion.sv Line: 162
# ** Error: HTRANS has an invalid value or transition!
#    Time: 495 ns Started: 495 ns  Scope: AhbMasterAssertionTb.ahbmasterassertions_u File: /fetools/work_area/frontend/prakhyath/ahb_avip_loc/src//hdlTop/masterAgentBFM/AhbMasterAssertion.sv Line: 49 Expr: hready
# ** Error: Address changed before HREADY HIGH!
#    Time: 505 ns Started: 495 ns  Scope: AhbMasterAssertionTb.ahbmasterassertions_u File: /fetools/work_area/frontend/prakhyath/ahb_avip_loc/src//hdlTop/masterAgentBFM/AhbMasterAssertion.sv Line: 163 Expr: $stable(haddr)
# UVM_INFO /fetools/work_area/frontend/prakhyath/ahb_avip_loc/src//hvlTop/tb/AhbMasterAssertionTb.sv(389) @ 515: reporter [AhbMasterAssertionTb]                  515 Check Trans Busy To Non Seq AssertionPass Task ended
# UVM_INFO /fetools/work_area/frontend/prakhyath/ahb_avip_loc/src//hvlTop/tb/AhbMasterAssertionTb.sv(393) @ 515: reporter [AhbMasterAssertionTb]                  515 Check Trans Busy To Non-Seq AssertionFail Task started
# ** Error: HTRANS has an invalid value or transition!
#    Time: 515 ns Started: 515 ns  Scope: AhbMasterAssertionTb.ahbmasterassertions_u File: /fetools/work_area/frontend/prakhyath/ahb_avip_loc/src//hdlTop/masterAgentBFM/AhbMasterAssertion.sv Line: 49 Expr: hready
# ** Info: Transition from BUSY to NON - SEQ passed
#    Time: 515 ns Started: 505 ns  Scope: AhbMasterAssertionTb.ahbmasterassertions_u File: /fetools/work_area/frontend/prakhyath/ahb_avip_loc/src//hdlTop/masterAgentBFM/AhbMasterAssertion.sv Line: 143
# ** Info: Address stability during waited transfer verified.
#    Time: 525 ns Started: 515 ns  Scope: AhbMasterAssertionTb.ahbmasterassertions_u File: /fetools/work_area/frontend/prakhyath/ahb_avip_loc/src//hdlTop/masterAgentBFM/AhbMasterAssertion.sv Line: 162
# ** Error: HTRANS has an invalid value or transition!
#    Time: 525 ns Started: 525 ns  Scope: AhbMasterAssertionTb.ahbmasterassertions_u File: /fetools/work_area/frontend/prakhyath/ahb_avip_loc/src//hdlTop/masterAgentBFM/AhbMasterAssertion.sv Line: 49 Expr: hready
# ** Error: Address changed before HREADY HIGH!
#    Time: 535 ns Started: 525 ns  Scope: AhbMasterAssertionTb.ahbmasterassertions_u File: /fetools/work_area/frontend/prakhyath/ahb_avip_loc/src//hdlTop/masterAgentBFM/AhbMasterAssertion.sv Line: 163 Expr: $stable(haddr)
# UVM_INFO /fetools/work_area/frontend/prakhyath/ahb_avip_loc/src//hvlTop/tb/AhbMasterAssertionTb.sv(404) @ 545: reporter [AhbMasterAssertionTb]                  545 Check Trans Busy To Non Seq AssertionFail Task ended
# UVM_INFO /fetools/work_area/frontend/prakhyath/ahb_avip_loc/src//hvlTop/tb/AhbMasterAssertionTb.sv(408) @ 545: reporter [AhbMasterAssertionTb]                  545 Check Trans Idle To Non-Seq AssertionPass Task started
# ** Error: HTRANS has an invalid value or transition!
#    Time: 545 ns Started: 545 ns  Scope: AhbMasterAssertionTb.ahbmasterassertions_u File: /fetools/work_area/frontend/prakhyath/ahb_avip_loc/src//hdlTop/masterAgentBFM/AhbMasterAssertion.sv Line: 49 Expr: hready
# ** Error: Transition from BUSY to NON - SEQ failed: Conditions not met!
#    Time: 545 ns Started: 535 ns  Scope: AhbMasterAssertionTb.ahbmasterassertions_u File: /fetools/work_area/frontend/prakhyath/ahb_avip_loc/src//hdlTop/masterAgentBFM/AhbMasterAssertion.sv Line: 144 Expr: $stable(haddr)
# ** Info: Address stability during waited transfer verified.
