# vsim -vopt work.AhbMasterAssertionTb -voptargs="+acc=npr" -assertdebug "+UVM_TESTNAME=AhbMasterAssertionTb" "+UVM_VERBOSITY=UVM_MEDIUM" -l AhbMasterAssertionTb/AhbMasterAssertionTb.log -sva -coverage -c -do "log -r /*; add wave -r /*; coverage save -onexit -assert -directive -cvg -codeAll AhbMasterAssertionTb/AhbMasterAssertionTb_coverage.ucdb; run -all; exit" -wlf AhbMasterAssertionTb/waveform.wlf 
# Start time: 11:11:01 on Jan 31,2025
# ** Note: (vsim-3812) Design is being optimized...
# //  Questa Sim
# //  Version 10.6c linux Jul 25 2017
# //
# //  Copyright 1991-2017 Mentor Graphics Corporation
# //  All Rights Reserved.
# //
# //  QuestaSim and its associated documentation contain trade
# //  secrets and commercial or financial information that are the property of
# //  Mentor Graphics Corporation and are privileged, confidential,
# //  and exempt from disclosure under the Freedom of Information Act,
# //  5 U.S.C. Section 552. Furthermore, this information
# //  is prohibited from disclosure under the Trade Secrets Act,
# //  18 U.S.C. Section 1905.
# //
# Loading sv_std.std
# Loading mtiUvm.uvm_pkg
# Loading work.AhbGlobalPackage(fast)
# Loading work.AhbMasterAssertionTb_sv_unit(fast)
# Loading work.AhbMasterAssertionTb(fast)
# Loading work.AhbMasterAssertion_sv_unit(fast)
# Loading work.AhbMasterAssertion(fast)
# Loading mtiUvm.questa_uvm_pkg(fast)
# Loading /tools/mentor/questasim_10.6c/questasim/uvm-1.1d/linux/uvm_dpi.so
# log -r /*
#  add wave -r /*
#  coverage save -onexit -assert -directive -cvg -codeAll AhbMasterAssertionTb/AhbMasterAssertionTb_coverage.ucdb
#  run -all
# ----------------------------------------------------------------
# UVM-1.1d
# (C) 2007-2013 Mentor Graphics Corporation
# (C) 2007-2013 Cadence Design Systems, Inc.
# (C) 2006-2013 Synopsys, Inc.
# (C) 2011-2013 Cypress Semiconductor Corp.
# ----------------------------------------------------------------
# 
#   ***********       IMPORTANT RELEASE NOTES         ************
# 
#   You are using a version of the UVM library that has been compiled
#   with `UVM_NO_DEPRECATED undefined.
#   See http://www.eda.org/svdb/view.php?id=3313 for more details.
# 
#   You are using a version of the UVM library that has been compiled
#   with `UVM_OBJECT_MUST_HAVE_CONSTRUCTOR undefined.
#   See http://www.eda.org/svdb/view.php?id=3770 for more details.
# 
#       (Specify +UVM_NO_RELNOTES to turn off this notice)
# 
# UVM_INFO verilog_src/questa_uvm_pkg-1.2/src/questa_uvm_pkg.sv(215) @ 0: reporter [Questa UVM] QUESTA_UVM-1.2.3
# UVM_INFO verilog_src/questa_uvm_pkg-1.2/src/questa_uvm_pkg.sv(217) @ 0: reporter [Questa UVM]  questa_uvm::init(+struct)
# UVM_INFO /fetools/work_area/frontend/prakhyath/ahb_avip_loc/src//hdlTop/masterAgentBFM/AhbMasterAssertion.sv(38) @ 0: reporter [MASTER_ASSERTIONS] MASTER_ASSERTIONS
# ** Info: HADDR is aligned based on HSIZE
#    Time: 15 ns Started: 15 ns  Scope: AhbMasterAssertionTb.ahbmasterassertions_u File: /fetools/work_area/frontend/prakhyath/ahb_avip_loc/src//hdlTop/masterAgentBFM/AhbMasterAssertion.sv Line: 71
# ** Info: HADDR is within the valid range
#    Time: 15 ns Started: 15 ns  Scope: AhbMasterAssertionTb.ahbmasterassertions_u File: /fetools/work_area/frontend/prakhyath/ahb_avip_loc/src//hdlTop/masterAgentBFM/AhbMasterAssertion.sv Line: 80
# ** Info: HRESP is OKAY during a successful transfer
#    Time: 15 ns Started: 15 ns  Scope: AhbMasterAssertionTb.ahbmasterassertions_u File: /fetools/work_area/frontend/prakhyath/ahb_avip_loc/src//hdlTop/masterAgentBFM/AhbMasterAssertion.sv Line: 89
# ** Info: HTRANS is Valid
#    Time: 15 ns Started: 15 ns  Scope: AhbMasterAssertionTb.ahbmasterassertions_u File: /fetools/work_area/frontend/prakhyath/ahb_avip_loc/src//hdlTop/masterAgentBFM/AhbMasterAssertion.sv Line: 60
# ** Info: INCR burst type passed: Address incremented correctly
#    Time: 15 ns Started: 15 ns  Scope: AhbMasterAssertionTb.ahbmasterassertions_u File: /fetools/work_area/frontend/prakhyath/ahb_avip_loc/src//hdlTop/masterAgentBFM/AhbMasterAssertion.sv Line: 126
# ** Info: HWDATA is Valid When HWRITE IS HIGH
#    Time: 15 ns Started: 15 ns  Scope: AhbMasterAssertionTb.ahbmasterassertions_u File: /fetools/work_area/frontend/prakhyath/ahb_avip_loc/src//hdlTop/masterAgentBFM/AhbMasterAssertion.sv Line: 51
# ** Info: HADDR is aligned based on HSIZE
#    Time: 25 ns Started: 25 ns  Scope: AhbMasterAssertionTb.ahbmasterassertions_u File: /fetools/work_area/frontend/prakhyath/ahb_avip_loc/src//hdlTop/masterAgentBFM/AhbMasterAssertion.sv Line: 71
# ** Info: HADDR is within the valid range
#    Time: 25 ns Started: 25 ns  Scope: AhbMasterAssertionTb.ahbmasterassertions_u File: /fetools/work_area/frontend/prakhyath/ahb_avip_loc/src//hdlTop/masterAgentBFM/AhbMasterAssertion.sv Line: 80
# ** Info: HRESP is OKAY during a successful transfer
#    Time: 25 ns Started: 25 ns  Scope: AhbMasterAssertionTb.ahbmasterassertions_u File: /fetools/work_area/frontend/prakhyath/ahb_avip_loc/src//hdlTop/masterAgentBFM/AhbMasterAssertion.sv Line: 89
# ** Info: HTRANS is Valid
#    Time: 25 ns Started: 25 ns  Scope: AhbMasterAssertionTb.ahbmasterassertions_u File: /fetools/work_area/frontend/prakhyath/ahb_avip_loc/src//hdlTop/masterAgentBFM/AhbMasterAssertion.sv Line: 60
# ** Error: INCR burst type failed: Address not incremented correctly!
#    Time: 25 ns Started: 25 ns  Scope: AhbMasterAssertionTb.ahbmasterassertions_u File: /fetools/work_area/frontend/prakhyath/ahb_avip_loc/src//hdlTop/masterAgentBFM/AhbMasterAssertion.sv Line: 127 Expr: haddr==$past(haddr)+(1<<hsize)
# ** Info: HWDATA is Valid When HWRITE IS HIGH
#    Time: 25 ns Started: 25 ns  Scope: AhbMasterAssertionTb.ahbmasterassertions_u File: /fetools/work_area/frontend/prakhyath/ahb_avip_loc/src//hdlTop/masterAgentBFM/AhbMasterAssertion.sv Line: 51
# ** Info: HADDR is aligned based on HSIZE
#    Time: 35 ns Started: 35 ns  Scope: AhbMasterAssertionTb.ahbmasterassertions_u File: /fetools/work_area/frontend/prakhyath/ahb_avip_loc/src//hdlTop/masterAgentBFM/AhbMasterAssertion.sv Line: 71
# ** Info: HADDR is within the valid range
#    Time: 35 ns Started: 35 ns  Scope: AhbMasterAssertionTb.ahbmasterassertions_u File: /fetools/work_area/frontend/prakhyath/ahb_avip_loc/src//hdlTop/masterAgentBFM/AhbMasterAssertion.sv Line: 80
# ** Info: HRESP is OKAY during a successful transfer
#    Time: 35 ns Started: 35 ns  Scope: AhbMasterAssertionTb.ahbmasterassertions_u File: /fetools/work_area/frontend/prakhyath/ahb_avip_loc/src//hdlTop/masterAgentBFM/AhbMasterAssertion.sv Line: 89
# ** Info: HTRANS is Valid
#    Time: 35 ns Started: 35 ns  Scope: AhbMasterAssertionTb.ahbmasterassertions_u File: /fetools/work_area/frontend/prakhyath/ahb_avip_loc/src//hdlTop/masterAgentBFM/AhbMasterAssertion.sv Line: 60
# ** Error: INCR burst type failed: Address not incremented correctly!
#    Time: 35 ns Started: 35 ns  Scope: AhbMasterAssertionTb.ahbmasterassertions_u File: /fetools/work_area/frontend/prakhyath/ahb_avip_loc/src//hdlTop/masterAgentBFM/AhbMasterAssertion.sv Line: 127 Expr: haddr==$past(haddr)+(1<<hsize)
# ** Info: HWDATA is Valid When HWRITE IS HIGH
#    Time: 35 ns Started: 35 ns  Scope: AhbMasterAssertionTb.ahbmasterassertions_u File: /fetools/work_area/frontend/prakhyath/ahb_avip_loc/src//hdlTop/masterAgentBFM/AhbMasterAssertion.sv Line: 51
# ** Info: HADDR is within the valid range
#    Time: 45 ns Started: 45 ns  Scope: AhbMasterAssertionTb.ahbmasterassertions_u File: /fetools/work_area/frontend/prakhyath/ahb_avip_loc/src//hdlTop/masterAgentBFM/AhbMasterAssertion.sv Line: 80
# ** Info: HRESP is OKAY during a successful transfer
#    Time: 45 ns Started: 45 ns  Scope: AhbMasterAssertionTb.ahbmasterassertions_u File: /fetools/work_area/frontend/prakhyath/ahb_avip_loc/src//hdlTop/masterAgentBFM/AhbMasterAssertion.sv Line: 89
# ** Info: HTRANS is Valid
#    Time: 45 ns Started: 45 ns  Scope: AhbMasterAssertionTb.ahbmasterassertions_u File: /fetools/work_area/frontend/prakhyath/ahb_avip_loc/src//hdlTop/masterAgentBFM/AhbMasterAssertion.sv Line: 60
# ** Error: HADDR is not aligned based on HSIZE!
#    Time: 45 ns Started: 45 ns  Scope: AhbMasterAssertionTb.ahbmasterassertions_u File: /fetools/work_area/frontend/prakhyath/ahb_avip_loc/src//hdlTop/masterAgentBFM/AhbMasterAssertion.sv Line: 72 Expr: haddr[1:0]==0
# ** Info: HWDATA is Valid When HWRITE IS HIGH
#    Time: 45 ns Started: 45 ns  Scope: AhbMasterAssertionTb.ahbmasterassertions_u File: /fetools/work_area/frontend/prakhyath/ahb_avip_loc/src//hdlTop/masterAgentBFM/AhbMasterAssertion.sv Line: 51
# ** Info: HADDR is within the valid range
#    Time: 55 ns Started: 55 ns  Scope: AhbMasterAssertionTb.ahbmasterassertions_u File: /fetools/work_area/frontend/prakhyath/ahb_avip_loc/src//hdlTop/masterAgentBFM/AhbMasterAssertion.sv Line: 80
# ** Info: HRESP is OKAY during a successful transfer
#    Time: 55 ns Started: 55 ns  Scope: AhbMasterAssertionTb.ahbmasterassertions_u File: /fetools/work_area/frontend/prakhyath/ahb_avip_loc/src//hdlTop/masterAgentBFM/AhbMasterAssertion.sv Line: 89
# ** Info: HTRANS is Valid
#    Time: 55 ns Started: 55 ns  Scope: AhbMasterAssertionTb.ahbmasterassertions_u File: /fetools/work_area/frontend/prakhyath/ahb_avip_loc/src//hdlTop/masterAgentBFM/AhbMasterAssertion.sv Line: 60
# ** Error: HADDR is not aligned based on HSIZE!
#    Time: 55 ns Started: 55 ns  Scope: AhbMasterAssertionTb.ahbmasterassertions_u File: /fetools/work_area/frontend/prakhyath/ahb_avip_loc/src//hdlTop/masterAgentBFM/AhbMasterAssertion.sv Line: 72 Expr: haddr[1:0]==0
# ** Info: HWDATA is Valid When HWRITE IS HIGH
#    Time: 55 ns Started: 55 ns  Scope: AhbMasterAssertionTb.ahbmasterassertions_u File: /fetools/work_area/frontend/prakhyath/ahb_avip_loc/src//hdlTop/masterAgentBFM/AhbMasterAssertion.sv Line: 51
# ** Info: HADDR is within the valid range
#    Time: 65 ns Started: 65 ns  Scope: AhbMasterAssertionTb.ahbmasterassertions_u File: /fetools/work_area/frontend/prakhyath/ahb_avip_loc/src//hdlTop/masterAgentBFM/AhbMasterAssertion.sv Line: 80
# ** Info: HRESP is OKAY during a successful transfer
#    Time: 65 ns Started: 65 ns  Scope: AhbMasterAssertionTb.ahbmasterassertions_u File: /fetools/work_area/frontend/prakhyath/ahb_avip_loc/src//hdlTop/masterAgentBFM/AhbMasterAssertion.sv Line: 89
# ** Info: HTRANS is Valid
#    Time: 65 ns Started: 65 ns  Scope: AhbMasterAssertionTb.ahbmasterassertions_u File: /fetools/work_area/frontend/prakhyath/ahb_avip_loc/src//hdlTop/masterAgentBFM/AhbMasterAssertion.sv Line: 60
# ** Error: HADDR is not aligned based on HSIZE!
#    Time: 65 ns Started: 65 ns  Scope: AhbMasterAssertionTb.ahbmasterassertions_u File: /fetools/work_area/frontend/prakhyath/ahb_avip_loc/src//hdlTop/masterAgentBFM/AhbMasterAssertion.sv Line: 72 Expr: haddr[1:0]==0
# ** Info: HWDATA is Valid When HWRITE IS HIGH
#    Time: 65 ns Started: 65 ns  Scope: AhbMasterAssertionTb.ahbmasterassertions_u File: /fetools/work_area/frontend/prakhyath/ahb_avip_loc/src//hdlTop/masterAgentBFM/AhbMasterAssertion.sv Line: 51
# ** Error: INCR burst type failed: Address not incremented correctly!
#    Time: 75 ns Started: 75 ns  Scope: AhbMasterAssertionTb.ahbmasterassertions_u File: /fetools/work_area/frontend/prakhyath/ahb_avip_loc/src//hdlTop/masterAgentBFM/AhbMasterAssertion.sv Line: 127 Expr: haddr==$past(haddr)+(1<<hsize)
# ** Info: HADDR is within the valid range
#    Time: 75 ns Started: 75 ns  Scope: AhbMasterAssertionTb.ahbmasterassertions_u File: /fetools/work_area/frontend/prakhyath/ahb_avip_loc/src//hdlTop/masterAgentBFM/AhbMasterAssertion.sv Line: 80
# ** Info: HRESP is OKAY during a successful transfer
#    Time: 75 ns Started: 75 ns  Scope: AhbMasterAssertionTb.ahbmasterassertions_u File: /fetools/work_area/frontend/prakhyath/ahb_avip_loc/src//hdlTop/masterAgentBFM/AhbMasterAssertion.sv Line: 89
# ** Info: HTRANS is Valid
#    Time: 75 ns Started: 75 ns  Scope: AhbMasterAssertionTb.ahbmasterassertions_u File: /fetools/work_area/frontend/prakhyath/ahb_avip_loc/src//hdlTop/masterAgentBFM/AhbMasterAssertion.sv Line: 60
# ** Info: HADDR is aligned based on HSIZE
#    Time: 75 ns Started: 75 ns  Scope: AhbMasterAssertionTb.ahbmasterassertions_u File: /fetools/work_area/frontend/prakhyath/ahb_avip_loc/src//hdlTop/masterAgentBFM/AhbMasterAssertion.sv Line: 71
# ** Info: HWDATA is Valid When HWRITE IS HIGH
#    Time: 75 ns Started: 75 ns  Scope: AhbMasterAssertionTb.ahbmasterassertions_u File: /fetools/work_area/frontend/prakhyath/ahb_avip_loc/src//hdlTop/masterAgentBFM/AhbMasterAssertion.sv Line: 51
# ** Error: INCR burst type failed: Address not incremented correctly!
#    Time: 85 ns Started: 85 ns  Scope: AhbMasterAssertionTb.ahbmasterassertions_u File: /fetools/work_area/frontend/prakhyath/ahb_avip_loc/src//hdlTop/masterAgentBFM/AhbMasterAssertion.sv Line: 127 Expr: haddr==$past(haddr)+(1<<hsize)
# ** Info: HADDR is within the valid range
#    Time: 85 ns Started: 85 ns  Scope: AhbMasterAssertionTb.ahbmasterassertions_u File: /fetools/work_area/frontend/prakhyath/ahb_avip_loc/src//hdlTop/masterAgentBFM/AhbMasterAssertion.sv Line: 80
# ** Info: HRESP is OKAY during a successful transfer
#    Time: 85 ns Started: 85 ns  Scope: AhbMasterAssertionTb.ahbmasterassertions_u File: /fetools/work_area/frontend/prakhyath/ahb_avip_loc/src//hdlTop/masterAgentBFM/AhbMasterAssertion.sv Line: 89
# ** Info: HTRANS is Valid
#    Time: 85 ns Started: 85 ns  Scope: AhbMasterAssertionTb.ahbmasterassertions_u File: /fetools/work_area/frontend/prakhyath/ahb_avip_loc/src//hdlTop/masterAgentBFM/AhbMasterAssertion.sv Line: 60
# ** Info: HADDR is aligned based on HSIZE
#    Time: 85 ns Started: 85 ns  Scope: AhbMasterAssertionTb.ahbmasterassertions_u File: /fetools/work_area/frontend/prakhyath/ahb_avip_loc/src//hdlTop/masterAgentBFM/AhbMasterAssertion.sv Line: 71
# ** Info: HWDATA is Valid When HWRITE IS HIGH
#    Time: 85 ns Started: 85 ns  Scope: AhbMasterAssertionTb.ahbmasterassertions_u File: /fetools/work_area/frontend/prakhyath/ahb_avip_loc/src//hdlTop/masterAgentBFM/AhbMasterAssertion.sv Line: 51
# ** Error: INCR burst type failed: Address not incremented correctly!
#    Time: 95 ns Started: 95 ns  Scope: AhbMasterAssertionTb.ahbmasterassertions_u File: /fetools/work_area/frontend/prakhyath/ahb_avip_loc/src//hdlTop/masterAgentBFM/AhbMasterAssertion.sv Line: 127 Expr: haddr==$past(haddr)+(1<<hsize)
# ** Info: HADDR is within the valid range
#    Time: 95 ns Started: 95 ns  Scope: AhbMasterAssertionTb.ahbmasterassertions_u File: /fetools/work_area/frontend/prakhyath/ahb_avip_loc/src//hdlTop/masterAgentBFM/AhbMasterAssertion.sv Line: 80
# ** Info: HRESP is OKAY during a successful transfer
#    Time: 95 ns Started: 95 ns  Scope: AhbMasterAssertionTb.ahbmasterassertions_u File: /fetools/work_area/frontend/prakhyath/ahb_avip_loc/src//hdlTop/masterAgentBFM/AhbMasterAssertion.sv Line: 89
# ** Info: HTRANS is Valid
#    Time: 95 ns Started: 95 ns  Scope: AhbMasterAssertionTb.ahbmasterassertions_u File: /fetools/work_area/frontend/prakhyath/ahb_avip_loc/src//hdlTop/masterAgentBFM/AhbMasterAssertion.sv Line: 60
# ** Info: HADDR is aligned based on HSIZE
#    Time: 95 ns Started: 95 ns  Scope: AhbMasterAssertionTb.ahbmasterassertions_u File: /fetools/work_area/frontend/prakhyath/ahb_avip_loc/src//hdlTop/masterAgentBFM/AhbMasterAssertion.sv Line: 71
# ** Info: HWDATA is Valid When HWRITE IS HIGH
#    Time: 95 ns Started: 95 ns  Scope: AhbMasterAssertionTb.ahbmasterassertions_u File: /fetools/work_area/frontend/prakhyath/ahb_avip_loc/src//hdlTop/masterAgentBFM/AhbMasterAssertion.sv Line: 51
# ** Error: INCR burst type failed: Address not incremented correctly!
#    Time: 105 ns Started: 105 ns  Scope: AhbMasterAssertionTb.ahbmasterassertions_u File: /fetools/work_area/frontend/prakhyath/ahb_avip_loc/src//hdlTop/masterAgentBFM/AhbMasterAssertion.sv Line: 127 Expr: haddr==$past(haddr)+(1<<hsize)
# ** Info: HADDR is within the valid range
#    Time: 105 ns Started: 105 ns  Scope: AhbMasterAssertionTb.ahbmasterassertions_u File: /fetools/work_area/frontend/prakhyath/ahb_avip_loc/src//hdlTop/masterAgentBFM/AhbMasterAssertion.sv Line: 80
# ** Info: HRESP is OKAY during a successful transfer
#    Time: 105 ns Started: 105 ns  Scope: AhbMasterAssertionTb.ahbmasterassertions_u File: /fetools/work_area/frontend/prakhyath/ahb_avip_loc/src//hdlTop/masterAgentBFM/AhbMasterAssertion.sv Line: 89
# ** Info: HTRANS is Valid
#    Time: 105 ns Started: 105 ns  Scope: AhbMasterAssertionTb.ahbmasterassertions_u File: /fetools/work_area/frontend/prakhyath/ahb_avip_loc/src//hdlTop/masterAgentBFM/AhbMasterAssertion.sv Line: 60
# ** Info: HADDR is aligned based on HSIZE
#    Time: 105 ns Started: 105 ns  Scope: AhbMasterAssertionTb.ahbmasterassertions_u File: /fetools/work_area/frontend/prakhyath/ahb_avip_loc/src//hdlTop/masterAgentBFM/AhbMasterAssertion.sv Line: 71
# ** Info: HWDATA is Valid When HWRITE IS HIGH
#    Time: 105 ns Started: 105 ns  Scope: AhbMasterAssertionTb.ahbmasterassertions_u File: /fetools/work_area/frontend/prakhyath/ahb_avip_loc/src//hdlTop/masterAgentBFM/AhbMasterAssertion.sv Line: 51
# ** Info: HADDR is within the valid range
#    Time: 115 ns Started: 115 ns  Scope: AhbMasterAssertionTb.ahbmasterassertions_u File: /fetools/work_area/frontend/prakhyath/ahb_avip_loc/src//hdlTop/masterAgentBFM/AhbMasterAssertion.sv Line: 80
# ** Info: HRESP is OKAY during a successful transfer
#    Time: 115 ns Started: 115 ns  Scope: AhbMasterAssertionTb.ahbmasterassertions_u File: /fetools/work_area/frontend/prakhyath/ahb_avip_loc/src//hdlTop/masterAgentBFM/AhbMasterAssertion.sv Line: 89
# ** Info: HTRANS is Valid
#    Time: 115 ns Started: 115 ns  Scope: AhbMasterAssertionTb.ahbmasterassertions_u File: /fetools/work_area/frontend/prakhyath/ahb_avip_loc/src//hdlTop/masterAgentBFM/AhbMasterAssertion.sv Line: 60
# ** Error: HADDR is not aligned based on HSIZE!
#    Time: 115 ns Started: 115 ns  Scope: AhbMasterAssertionTb.ahbmasterassertions_u File: /fetools/work_area/frontend/prakhyath/ahb_avip_loc/src//hdlTop/masterAgentBFM/AhbMasterAssertion.sv Line: 72 Expr: haddr[1:0]==0
# ** Info: HWDATA is Valid When HWRITE IS HIGH
#    Time: 115 ns Started: 115 ns  Scope: AhbMasterAssertionTb.ahbmasterassertions_u File: /fetools/work_area/frontend/prakhyath/ahb_avip_loc/src//hdlTop/masterAgentBFM/AhbMasterAssertion.sv Line: 51
# ** Info: HADDR is within the valid range
#    Time: 125 ns Started: 125 ns  Scope: AhbMasterAssertionTb.ahbmasterassertions_u File: /fetools/work_area/frontend/prakhyath/ahb_avip_loc/src//hdlTop/masterAgentBFM/AhbMasterAssertion.sv Line: 80
# ** Info: HRESP is OKAY during a successful transfer
#    Time: 125 ns Started: 125 ns  Scope: AhbMasterAssertionTb.ahbmasterassertions_u File: /fetools/work_area/frontend/prakhyath/ahb_avip_loc/src//hdlTop/masterAgentBFM/AhbMasterAssertion.sv Line: 89
# ** Info: HTRANS is Valid
#    Time: 125 ns Started: 125 ns  Scope: AhbMasterAssertionTb.ahbmasterassertions_u File: /fetools/work_area/frontend/prakhyath/ahb_avip_loc/src//hdlTop/masterAgentBFM/AhbMasterAssertion.sv Line: 60
# ** Error: HADDR is not aligned based on HSIZE!
#    Time: 125 ns Started: 125 ns  Scope: AhbMasterAssertionTb.ahbmasterassertions_u File: /fetools/work_area/frontend/prakhyath/ahb_avip_loc/src//hdlTop/masterAgentBFM/AhbMasterAssertion.sv Line: 72 Expr: haddr[1:0]==0
# ** Info: HWDATA is Valid When HWRITE IS HIGH
#    Time: 125 ns Started: 125 ns  Scope: AhbMasterAssertionTb.ahbmasterassertions_u File: /fetools/work_area/frontend/prakhyath/ahb_avip_loc/src//hdlTop/masterAgentBFM/AhbMasterAssertion.sv Line: 51
# ** Info: HADDR is within the valid range
#    Time: 135 ns Started: 135 ns  Scope: AhbMasterAssertionTb.ahbmasterassertions_u File: /fetools/work_area/frontend/prakhyath/ahb_avip_loc/src//hdlTop/masterAgentBFM/AhbMasterAssertion.sv Line: 80
# ** Info: HRESP is OKAY during a successful transfer
#    Time: 135 ns Started: 135 ns  Scope: AhbMasterAssertionTb.ahbmasterassertions_u File: /fetools/work_area/frontend/prakhyath/ahb_avip_loc/src//hdlTop/masterAgentBFM/AhbMasterAssertion.sv Line: 89
# ** Info: HTRANS is Valid
#    Time: 135 ns Started: 135 ns  Scope: AhbMasterAssertionTb.ahbmasterassertions_u File: /fetools/work_area/frontend/prakhyath/ahb_avip_loc/src//hdlTop/masterAgentBFM/AhbMasterAssertion.sv Line: 60
# ** Error: HADDR is not aligned based on HSIZE!
#    Time: 135 ns Started: 135 ns  Scope: AhbMasterAssertionTb.ahbmasterassertions_u File: /fetools/work_area/frontend/prakhyath/ahb_avip_loc/src//hdlTop/masterAgentBFM/AhbMasterAssertion.sv Line: 72 Expr: haddr[1:0]==0
# ** Info: HWDATA is Valid When HWRITE IS HIGH
#    Time: 135 ns Started: 135 ns  Scope: AhbMasterAssertionTb.ahbmasterassertions_u File: /fetools/work_area/frontend/prakhyath/ahb_avip_loc/src//hdlTop/masterAgentBFM/AhbMasterAssertion.sv Line: 51
# ** Error: INCR burst type failed: Address not incremented correctly!
#    Time: 145 ns Started: 145 ns  Scope: AhbMasterAssertionTb.ahbmasterassertions_u File: /fetools/work_area/frontend/prakhyath/ahb_avip_loc/src//hdlTop/masterAgentBFM/AhbMasterAssertion.sv Line: 127 Expr: haddr==$past(haddr)+(1<<hsize)
# ** Info: HADDR is within the valid range
#    Time: 145 ns Started: 145 ns  Scope: AhbMasterAssertionTb.ahbmasterassertions_u File: /fetools/work_area/frontend/prakhyath/ahb_avip_loc/src//hdlTop/masterAgentBFM/AhbMasterAssertion.sv Line: 80
# ** Info: HRESP is OKAY during a successful transfer
#    Time: 145 ns Started: 145 ns  Scope: AhbMasterAssertionTb.ahbmasterassertions_u File: /fetools/work_area/frontend/prakhyath/ahb_avip_loc/src//hdlTop/masterAgentBFM/AhbMasterAssertion.sv Line: 89
# ** Info: HTRANS is Valid
#    Time: 145 ns Started: 145 ns  Scope: AhbMasterAssertionTb.ahbmasterassertions_u File: /fetools/work_area/frontend/prakhyath/ahb_avip_loc/src//hdlTop/masterAgentBFM/AhbMasterAssertion.sv Line: 60
# ** Info: HADDR is aligned based on HSIZE
#    Time: 145 ns Started: 145 ns  Scope: AhbMasterAssertionTb.ahbmasterassertions_u File: /fetools/work_area/frontend/prakhyath/ahb_avip_loc/src//hdlTop/masterAgentBFM/AhbMasterAssertion.sv Line: 71
# ** Info: HWDATA is Valid When HWRITE IS HIGH
#    Time: 145 ns Started: 145 ns  Scope: AhbMasterAssertionTb.ahbmasterassertions_u File: /fetools/work_area/frontend/prakhyath/ahb_avip_loc/src//hdlTop/masterAgentBFM/AhbMasterAssertion.sv Line: 51
# ** Error: INCR burst type failed: Address not incremented correctly!
#    Time: 155 ns Started: 155 ns  Scope: AhbMasterAssertionTb.ahbmasterassertions_u File: /fetools/work_area/frontend/prakhyath/ahb_avip_loc/src//hdlTop/masterAgentBFM/AhbMasterAssertion.sv Line: 127 Expr: haddr==$past(haddr)+(1<<hsize)
# ** Info: HADDR is within the valid range
#    Time: 155 ns Started: 155 ns  Scope: AhbMasterAssertionTb.ahbmasterassertions_u File: /fetools/work_area/frontend/prakhyath/ahb_avip_loc/src//hdlTop/masterAgentBFM/AhbMasterAssertion.sv Line: 80
# ** Info: HRESP is OKAY during a successful transfer
#    Time: 155 ns Started: 155 ns  Scope: AhbMasterAssertionTb.ahbmasterassertions_u File: /fetools/work_area/frontend/prakhyath/ahb_avip_loc/src//hdlTop/masterAgentBFM/AhbMasterAssertion.sv Line: 89
# ** Info: HTRANS is Valid
#    Time: 155 ns Started: 155 ns  Scope: AhbMasterAssertionTb.ahbmasterassertions_u File: /fetools/work_area/frontend/prakhyath/ahb_avip_loc/src//hdlTop/masterAgentBFM/AhbMasterAssertion.sv Line: 60
# ** Info: HADDR is aligned based on HSIZE
#    Time: 155 ns Started: 155 ns  Scope: AhbMasterAssertionTb.ahbmasterassertions_u File: /fetools/work_area/frontend/prakhyath/ahb_avip_loc/src//hdlTop/masterAgentBFM/AhbMasterAssertion.sv Line: 71
# ** Info: HWDATA is Valid When HWRITE IS HIGH
#    Time: 155 ns Started: 155 ns  Scope: AhbMasterAssertionTb.ahbmasterassertions_u File: /fetools/work_area/frontend/prakhyath/ahb_avip_loc/src//hdlTop/masterAgentBFM/AhbMasterAssertion.sv Line: 51
# ** Error: INCR burst type failed: Address not incremented correctly!
#    Time: 165 ns Started: 165 ns  Scope: AhbMasterAssertionTb.ahbmasterassertions_u File: /fetools/work_area/frontend/prakhyath/ahb_avip_loc/src//hdlTop/masterAgentBFM/AhbMasterAssertion.sv Line: 127 Expr: haddr==$past(haddr)+(1<<hsize)
# ** Info: HADDR is within the valid range
#    Time: 165 ns Started: 165 ns  Scope: AhbMasterAssertionTb.ahbmasterassertions_u File: /fetools/work_area/frontend/prakhyath/ahb_avip_loc/src//hdlTop/masterAgentBFM/AhbMasterAssertion.sv Line: 80
# ** Info: HRESP is OKAY during a successful transfer
#    Time: 165 ns Started: 165 ns  Scope: AhbMasterAssertionTb.ahbmasterassertions_u File: /fetools/work_area/frontend/prakhyath/ahb_avip_loc/src//hdlTop/masterAgentBFM/AhbMasterAssertion.sv Line: 89
# ** Info: HTRANS is Valid
#    Time: 165 ns Started: 165 ns  Scope: AhbMasterAssertionTb.ahbmasterassertions_u File: /fetools/work_area/frontend/prakhyath/ahb_avip_loc/src//hdlTop/masterAgentBFM/AhbMasterAssertion.sv Line: 60
# ** Info: HADDR is aligned based on HSIZE
#    Time: 165 ns Started: 165 ns  Scope: AhbMasterAssertionTb.ahbmasterassertions_u File: /fetools/work_area/frontend/prakhyath/ahb_avip_loc/src//hdlTop/masterAgentBFM/AhbMasterAssertion.sv Line: 71
# ** Info: HWDATA is Valid When HWRITE IS HIGH
#    Time: 165 ns Started: 165 ns  Scope: AhbMasterAssertionTb.ahbmasterassertions_u File: /fetools/work_area/frontend/prakhyath/ahb_avip_loc/src//hdlTop/masterAgentBFM/AhbMasterAssertion.sv Line: 51
# ** Info: HRESP is ERROR during error conditions
#    Time: 175 ns Started: 175 ns  Scope: AhbMasterAssertionTb.ahbmasterassertions_u File: /fetools/work_area/frontend/prakhyath/ahb_avip_loc/src//hdlTop/masterAgentBFM/AhbMasterAssertion.sv Line: 98
# ** Error: INCR burst type failed: Address not incremented correctly!
#    Time: 175 ns Started: 175 ns  Scope: AhbMasterAssertionTb.ahbmasterassertions_u File: /fetools/work_area/frontend/prakhyath/ahb_avip_loc/src//hdlTop/masterAgentBFM/AhbMasterAssertion.sv Line: 127 Expr: haddr==$past(haddr)+(1<<hsize)
# ** Info: HADDR is within the valid range
#    Time: 175 ns Started: 175 ns  Scope: AhbMasterAssertionTb.ahbmasterassertions_u File: /fetools/work_area/frontend/prakhyath/ahb_avip_loc/src//hdlTop/masterAgentBFM/AhbMasterAssertion.sv Line: 80
# ** Error: HRESP is not OKAY for a successful transfer!
#    Time: 175 ns Started: 175 ns  Scope: AhbMasterAssertionTb.ahbmasterassertions_u File: /fetools/work_area/frontend/prakhyath/ahb_avip_loc/src//hdlTop/masterAgentBFM/AhbMasterAssertion.sv Line: 90 Expr: ~hresp
# ** Info: HTRANS is Valid
#    Time: 175 ns Started: 175 ns  Scope: AhbMasterAssertionTb.ahbmasterassertions_u File: /fetools/work_area/frontend/prakhyath/ahb_avip_loc/src//hdlTop/masterAgentBFM/AhbMasterAssertion.sv Line: 60
# ** Info: HADDR is aligned based on HSIZE
#    Time: 175 ns Started: 175 ns  Scope: AhbMasterAssertionTb.ahbmasterassertions_u File: /fetools/work_area/frontend/prakhyath/ahb_avip_loc/src//hdlTop/masterAgentBFM/AhbMasterAssertion.sv Line: 71
# ** Info: HWDATA is Valid When HWRITE IS HIGH
#    Time: 175 ns Started: 175 ns  Scope: AhbMasterAssertionTb.ahbmasterassertions_u File: /fetools/work_area/frontend/prakhyath/ahb_avip_loc/src//hdlTop/masterAgentBFM/AhbMasterAssertion.sv Line: 51
# ** Info: HRESP is ERROR during error conditions
#    Time: 185 ns Started: 185 ns  Scope: AhbMasterAssertionTb.ahbmasterassertions_u File: /fetools/work_area/frontend/prakhyath/ahb_avip_loc/src//hdlTop/masterAgentBFM/AhbMasterAssertion.sv Line: 98
# ** Error: INCR burst type failed: Address not incremented correctly!
#    Time: 185 ns Started: 185 ns  Scope: AhbMasterAssertionTb.ahbmasterassertions_u File: /fetools/work_area/frontend/prakhyath/ahb_avip_loc/src//hdlTop/masterAgentBFM/AhbMasterAssertion.sv Line: 127 Expr: haddr==$past(haddr)+(1<<hsize)
# ** Info: HADDR is within the valid range
#    Time: 185 ns Started: 185 ns  Scope: AhbMasterAssertionTb.ahbmasterassertions_u File: /fetools/work_area/frontend/prakhyath/ahb_avip_loc/src//hdlTop/masterAgentBFM/AhbMasterAssertion.sv Line: 80
# ** Error: HRESP is not OKAY for a successful transfer!
#    Time: 185 ns Started: 185 ns  Scope: AhbMasterAssertionTb.ahbmasterassertions_u File: /fetools/work_area/frontend/prakhyath/ahb_avip_loc/src//hdlTop/masterAgentBFM/AhbMasterAssertion.sv Line: 90 Expr: ~hresp
# ** Info: HTRANS is Valid
#    Time: 185 ns Started: 185 ns  Scope: AhbMasterAssertionTb.ahbmasterassertions_u File: /fetools/work_area/frontend/prakhyath/ahb_avip_loc/src//hdlTop/masterAgentBFM/AhbMasterAssertion.sv Line: 60
# ** Info: HADDR is aligned based on HSIZE
#    Time: 185 ns Started: 185 ns  Scope: AhbMasterAssertionTb.ahbmasterassertions_u File: /fetools/work_area/frontend/prakhyath/ahb_avip_loc/src//hdlTop/masterAgentBFM/AhbMasterAssertion.sv Line: 71
# ** Info: HWDATA is Valid When HWRITE IS HIGH
#    Time: 185 ns Started: 185 ns  Scope: AhbMasterAssertionTb.ahbmasterassertions_u File: /fetools/work_area/frontend/prakhyath/ahb_avip_loc/src//hdlTop/masterAgentBFM/AhbMasterAssertion.sv Line: 51
# ** Info: HRESP is ERROR during error conditions
#    Time: 195 ns Started: 195 ns  Scope: AhbMasterAssertionTb.ahbmasterassertions_u File: /fetools/work_area/frontend/prakhyath/ahb_avip_loc/src//hdlTop/masterAgentBFM/AhbMasterAssertion.sv Line: 98
# ** Error: INCR burst type failed: Address not incremented correctly!
#    Time: 195 ns Started: 195 ns  Scope: AhbMasterAssertionTb.ahbmasterassertions_u File: /fetools/work_area/frontend/prakhyath/ahb_avip_loc/src//hdlTop/masterAgentBFM/AhbMasterAssertion.sv Line: 127 Expr: haddr==$past(haddr)+(1<<hsize)
# ** Info: HADDR is within the valid range
#    Time: 195 ns Started: 195 ns  Scope: AhbMasterAssertionTb.ahbmasterassertions_u File: /fetools/work_area/frontend/prakhyath/ahb_avip_loc/src//hdlTop/masterAgentBFM/AhbMasterAssertion.sv Line: 80
# ** Error: HRESP is not OKAY for a successful transfer!
#    Time: 195 ns Started: 195 ns  Scope: AhbMasterAssertionTb.ahbmasterassertions_u File: /fetools/work_area/frontend/prakhyath/ahb_avip_loc/src//hdlTop/masterAgentBFM/AhbMasterAssertion.sv Line: 90 Expr: ~hresp
# ** Info: HTRANS is Valid
#    Time: 195 ns Started: 195 ns  Scope: AhbMasterAssertionTb.ahbmasterassertions_u File: /fetools/work_area/frontend/prakhyath/ahb_avip_loc/src//hdlTop/masterAgentBFM/AhbMasterAssertion.sv Line: 60
# ** Info: HADDR is aligned based on HSIZE
#    Time: 195 ns Started: 195 ns  Scope: AhbMasterAssertionTb.ahbmasterassertions_u File: /fetools/work_area/frontend/prakhyath/ahb_avip_loc/src//hdlTop/masterAgentBFM/AhbMasterAssertion.sv Line: 71
# ** Info: HWDATA is Valid When HWRITE IS HIGH
#    Time: 195 ns Started: 195 ns  Scope: AhbMasterAssertionTb.ahbmasterassertions_u File: /fetools/work_area/frontend/prakhyath/ahb_avip_loc/src//hdlTop/masterAgentBFM/AhbMasterAssertion.sv Line: 51
# ** Info: HRESP is ERROR during error conditions
#    Time: 205 ns Started: 205 ns  Scope: AhbMasterAssertionTb.ahbmasterassertions_u File: /fetools/work_area/frontend/prakhyath/ahb_avip_loc/src//hdlTop/masterAgentBFM/AhbMasterAssertion.sv Line: 98
# ** Error: INCR burst type failed: Address not incremented correctly!
#    Time: 205 ns Started: 205 ns  Scope: AhbMasterAssertionTb.ahbmasterassertions_u File: /fetools/work_area/frontend/prakhyath/ahb_avip_loc/src//hdlTop/masterAgentBFM/AhbMasterAssertion.sv Line: 127 Expr: haddr==$past(haddr)+(1<<hsize)
# ** Info: HADDR is within the valid range
#    Time: 205 ns Started: 205 ns  Scope: AhbMasterAssertionTb.ahbmasterassertions_u File: /fetools/work_area/frontend/prakhyath/ahb_avip_loc/src//hdlTop/masterAgentBFM/AhbMasterAssertion.sv Line: 80
# ** Error: HRESP is not OKAY for a successful transfer!
#    Time: 205 ns Started: 205 ns  Scope: AhbMasterAssertionTb.ahbmasterassertions_u File: /fetools/work_area/frontend/prakhyath/ahb_avip_loc/src//hdlTop/masterAgentBFM/AhbMasterAssertion.sv Line: 90 Expr: ~hresp
# ** Info: HTRANS is Valid
#    Time: 205 ns Started: 205 ns  Scope: AhbMasterAssertionTb.ahbmasterassertions_u File: /fetools/work_area/frontend/prakhyath/ahb_avip_loc/src//hdlTop/masterAgentBFM/AhbMasterAssertion.sv Line: 60
# ** Info: HADDR is aligned based on HSIZE
#    Time: 205 ns Started: 205 ns  Scope: AhbMasterAssertionTb.ahbmasterassertions_u File: /fetools/work_area/frontend/prakhyath/ahb_avip_loc/src//hdlTop/masterAgentBFM/AhbMasterAssertion.sv Line: 71
# ** Info: HWDATA is Valid When HWRITE IS HIGH
#    Time: 205 ns Started: 205 ns  Scope: AhbMasterAssertionTb.ahbmasterassertions_u File: /fetools/work_area/frontend/prakhyath/ahb_avip_loc/src//hdlTop/masterAgentBFM/AhbMasterAssertion.sv Line: 51
# ** Info: HRESP is ERROR during error conditions
#    Time: 215 ns Started: 215 ns  Scope: AhbMasterAssertionTb.ahbmasterassertions_u File: /fetools/work_area/frontend/prakhyath/ahb_avip_loc/src//hdlTop/masterAgentBFM/AhbMasterAssertion.sv Line: 98
# ** Error: INCR burst type failed: Address not incremented correctly!
#    Time: 215 ns Started: 215 ns  Scope: AhbMasterAssertionTb.ahbmasterassertions_u File: /fetools/work_area/frontend/prakhyath/ahb_avip_loc/src//hdlTop/masterAgentBFM/AhbMasterAssertion.sv Line: 127 Expr: haddr==$past(haddr)+(1<<hsize)
# ** Info: HADDR is within the valid range
#    Time: 215 ns Started: 215 ns  Scope: AhbMasterAssertionTb.ahbmasterassertions_u File: /fetools/work_area/frontend/prakhyath/ahb_avip_loc/src//hdlTop/masterAgentBFM/AhbMasterAssertion.sv Line: 80
# ** Error: HRESP is not OKAY for a successful transfer!
#    Time: 215 ns Started: 215 ns  Scope: AhbMasterAssertionTb.ahbmasterassertions_u File: /fetools/work_area/frontend/prakhyath/ahb_avip_loc/src//hdlTop/masterAgentBFM/AhbMasterAssertion.sv Line: 90 Expr: ~hresp
# ** Info: HTRANS is Valid
#    Time: 215 ns Started: 215 ns  Scope: AhbMasterAssertionTb.ahbmasterassertions_u File: /fetools/work_area/frontend/prakhyath/ahb_avip_loc/src//hdlTop/masterAgentBFM/AhbMasterAssertion.sv Line: 60
# ** Info: HADDR is aligned based on HSIZE
#    Time: 215 ns Started: 215 ns  Scope: AhbMasterAssertionTb.ahbmasterassertions_u File: /fetools/work_area/frontend/prakhyath/ahb_avip_loc/src//hdlTop/masterAgentBFM/AhbMasterAssertion.sv Line: 71
# ** Info: HWDATA is Valid When HWRITE IS HIGH
#    Time: 215 ns Started: 215 ns  Scope: AhbMasterAssertionTb.ahbmasterassertions_u File: /fetools/work_area/frontend/prakhyath/ahb_avip_loc/src//hdlTop/masterAgentBFM/AhbMasterAssertion.sv Line: 51
# ** Info: HRESP is ERROR during error conditions
#    Time: 225 ns Started: 225 ns  Scope: AhbMasterAssertionTb.ahbmasterassertions_u File: /fetools/work_area/frontend/prakhyath/ahb_avip_loc/src//hdlTop/masterAgentBFM/AhbMasterAssertion.sv Line: 98
# ** Error: INCR burst type failed: Address not incremented correctly!
#    Time: 225 ns Started: 225 ns  Scope: AhbMasterAssertionTb.ahbmasterassertions_u File: /fetools/work_area/frontend/prakhyath/ahb_avip_loc/src//hdlTop/masterAgentBFM/AhbMasterAssertion.sv Line: 127 Expr: haddr==$past(haddr)+(1<<hsize)
# ** Info: HADDR is within the valid range
#    Time: 225 ns Started: 225 ns  Scope: AhbMasterAssertionTb.ahbmasterassertions_u File: /fetools/work_area/frontend/prakhyath/ahb_avip_loc/src//hdlTop/masterAgentBFM/AhbMasterAssertion.sv Line: 80
# ** Error: HRESP is not OKAY for a successful transfer!
#    Time: 225 ns Started: 225 ns  Scope: AhbMasterAssertionTb.ahbmasterassertions_u File: /fetools/work_area/frontend/prakhyath/ahb_avip_loc/src//hdlTop/masterAgentBFM/AhbMasterAssertion.sv Line: 90 Expr: ~hresp
# ** Info: HTRANS is Valid
#    Time: 225 ns Started: 225 ns  Scope: AhbMasterAssertionTb.ahbmasterassertions_u File: /fetools/work_area/frontend/prakhyath/ahb_avip_loc/src//hdlTop/masterAgentBFM/AhbMasterAssertion.sv Line: 60
# ** Info: HADDR is aligned based on HSIZE
#    Time: 225 ns Started: 225 ns  Scope: AhbMasterAssertionTb.ahbmasterassertions_u File: /fetools/work_area/frontend/prakhyath/ahb_avip_loc/src//hdlTop/masterAgentBFM/AhbMasterAssertion.sv Line: 71
# ** Info: HWDATA is Valid When HWRITE IS HIGH
#    Time: 225 ns Started: 225 ns  Scope: AhbMasterAssertionTb.ahbmasterassertions_u File: /fetools/work_area/frontend/prakhyath/ahb_avip_loc/src//hdlTop/masterAgentBFM/AhbMasterAssertion.sv Line: 51
# ** Info: HRESP is ERROR during error conditions
#    Time: 235 ns Started: 235 ns  Scope: AhbMasterAssertionTb.ahbmasterassertions_u File: /fetools/work_area/frontend/prakhyath/ahb_avip_loc/src//hdlTop/masterAgentBFM/AhbMasterAssertion.sv Line: 98
# ** Info: WRAP burst type passed: Address wrapping is done correctly
#    Time: 235 ns Started: 235 ns  Scope: AhbMasterAssertionTb.ahbmasterassertions_u File: /fetools/work_area/frontend/prakhyath/ahb_avip_loc/src//hdlTop/masterAgentBFM/AhbMasterAssertion.sv Line: 137
# ** Info: HADDR is within the valid range
#    Time: 235 ns Started: 235 ns  Scope: AhbMasterAssertionTb.ahbmasterassertions_u File: /fetools/work_area/frontend/prakhyath/ahb_avip_loc/src//hdlTop/masterAgentBFM/AhbMasterAssertion.sv Line: 80
# ** Error: HRESP is not OKAY for a successful transfer!
#    Time: 235 ns Started: 235 ns  Scope: AhbMasterAssertionTb.ahbmasterassertions_u File: /fetools/work_area/frontend/prakhyath/ahb_avip_loc/src//hdlTop/masterAgentBFM/AhbMasterAssertion.sv Line: 90 Expr: ~hresp
# ** Info: HTRANS is Valid
#    Time: 235 ns Started: 235 ns  Scope: AhbMasterAssertionTb.ahbmasterassertions_u File: /fetools/work_area/frontend/prakhyath/ahb_avip_loc/src//hdlTop/masterAgentBFM/AhbMasterAssertion.sv Line: 60
# ** Info: HADDR is aligned based on HSIZE
#    Time: 235 ns Started: 235 ns  Scope: AhbMasterAssertionTb.ahbmasterassertions_u File: /fetools/work_area/frontend/prakhyath/ahb_avip_loc/src//hdlTop/masterAgentBFM/AhbMasterAssertion.sv Line: 71
# ** Info: HWDATA is Valid When HWRITE IS HIGH
#    Time: 235 ns Started: 235 ns  Scope: AhbMasterAssertionTb.ahbmasterassertions_u File: /fetools/work_area/frontend/prakhyath/ahb_avip_loc/src//hdlTop/masterAgentBFM/AhbMasterAssertion.sv Line: 51
# ** Info: HRESP is ERROR during error conditions
#    Time: 245 ns Started: 245 ns  Scope: AhbMasterAssertionTb.ahbmasterassertions_u File: /fetools/work_area/frontend/prakhyath/ahb_avip_loc/src//hdlTop/masterAgentBFM/AhbMasterAssertion.sv Line: 98
# ** Info: WRAP burst type passed: Address wrapping is done correctly
#    Time: 245 ns Started: 245 ns  Scope: AhbMasterAssertionTb.ahbmasterassertions_u File: /fetools/work_area/frontend/prakhyath/ahb_avip_loc/src//hdlTop/masterAgentBFM/AhbMasterAssertion.sv Line: 137
# ** Info: HADDR is within the valid range
#    Time: 245 ns Started: 245 ns  Scope: AhbMasterAssertionTb.ahbmasterassertions_u File: /fetools/work_area/frontend/prakhyath/ahb_avip_loc/src//hdlTop/masterAgentBFM/AhbMasterAssertion.sv Line: 80
# ** Error: HRESP is not OKAY for a successful transfer!
#    Time: 245 ns Started: 245 ns  Scope: AhbMasterAssertionTb.ahbmasterassertions_u File: /fetools/work_area/frontend/prakhyath/ahb_avip_loc/src//hdlTop/masterAgentBFM/AhbMasterAssertion.sv Line: 90 Expr: ~hresp
# ** Info: HTRANS is Valid
#    Time: 245 ns Started: 245 ns  Scope: AhbMasterAssertionTb.ahbmasterassertions_u File: /fetools/work_area/frontend/prakhyath/ahb_avip_loc/src//hdlTop/masterAgentBFM/AhbMasterAssertion.sv Line: 60
# ** Info: HADDR is aligned based on HSIZE
#    Time: 245 ns Started: 245 ns  Scope: AhbMasterAssertionTb.ahbmasterassertions_u File: /fetools/work_area/frontend/prakhyath/ahb_avip_loc/src//hdlTop/masterAgentBFM/AhbMasterAssertion.sv Line: 71
# ** Info: HWDATA is Valid When HWRITE IS HIGH
#    Time: 245 ns Started: 245 ns  Scope: AhbMasterAssertionTb.ahbmasterassertions_u File: /fetools/work_area/frontend/prakhyath/ahb_avip_loc/src//hdlTop/masterAgentBFM/AhbMasterAssertion.sv Line: 51
# ** Info: HRESP is ERROR during error conditions
#    Time: 255 ns Started: 255 ns  Scope: AhbMasterAssertionTb.ahbmasterassertions_u File: /fetools/work_area/frontend/prakhyath/ahb_avip_loc/src//hdlTop/masterAgentBFM/AhbMasterAssertion.sv Line: 98
# ** Info: WRAP burst type passed: Address wrapping is done correctly
#    Time: 255 ns Started: 255 ns  Scope: AhbMasterAssertionTb.ahbmasterassertions_u File: /fetools/work_area/frontend/prakhyath/ahb_avip_loc/src//hdlTop/masterAgentBFM/AhbMasterAssertion.sv Line: 137
# ** Info: HADDR is within the valid range
#    Time: 255 ns Started: 255 ns  Scope: AhbMasterAssertionTb.ahbmasterassertions_u File: /fetools/work_area/frontend/prakhyath/ahb_avip_loc/src//hdlTop/masterAgentBFM/AhbMasterAssertion.sv Line: 80
# ** Error: HRESP is not OKAY for a successful transfer!
#    Time: 255 ns Started: 255 ns  Scope: AhbMasterAssertionTb.ahbmasterassertions_u File: /fetools/work_area/frontend/prakhyath/ahb_avip_loc/src//hdlTop/masterAgentBFM/AhbMasterAssertion.sv Line: 90 Expr: ~hresp
# ** Info: HTRANS is Valid
#    Time: 255 ns Started: 255 ns  Scope: AhbMasterAssertionTb.ahbmasterassertions_u File: /fetools/work_area/frontend/prakhyath/ahb_avip_loc/src//hdlTop/masterAgentBFM/AhbMasterAssertion.sv Line: 60
# ** Info: HADDR is aligned based on HSIZE
#    Time: 255 ns Started: 255 ns  Scope: AhbMasterAssertionTb.ahbmasterassertions_u File: /fetools/work_area/frontend/prakhyath/ahb_avip_loc/src//hdlTop/masterAgentBFM/AhbMasterAssertion.sv Line: 71
# ** Info: HWDATA is Valid When HWRITE IS HIGH
#    Time: 255 ns Started: 255 ns  Scope: AhbMasterAssertionTb.ahbmasterassertions_u File: /fetools/work_area/frontend/prakhyath/ahb_avip_loc/src//hdlTop/masterAgentBFM/AhbMasterAssertion.sv Line: 51
# ** Error: HTRANS has an invalid value or transition!
#    Time: 265 ns Started: 265 ns  Scope: AhbMasterAssertionTb.ahbmasterassertions_u File: /fetools/work_area/frontend/prakhyath/ahb_avip_loc/src//hdlTop/masterAgentBFM/AhbMasterAssertion.sv Line: 61 Expr: hready
# ** Info: WRAP burst type passed: Address wrapping is done correctly
#    Time: 265 ns Started: 265 ns  Scope: AhbMasterAssertionTb.ahbmasterassertions_u File: /fetools/work_area/frontend/prakhyath/ahb_avip_loc/src//hdlTop/masterAgentBFM/AhbMasterAssertion.sv Line: 137
# ** Info: HADDR is within the valid range
#    Time: 275 ns Started: 275 ns  Scope: AhbMasterAssertionTb.ahbmasterassertions_u File: /fetools/work_area/frontend/prakhyath/ahb_avip_loc/src//hdlTop/masterAgentBFM/AhbMasterAssertion.sv Line: 80
# ** Error: HRESP is not OKAY for a successful transfer!
#    Time: 275 ns Started: 275 ns  Scope: AhbMasterAssertionTb.ahbmasterassertions_u File: /fetools/work_area/frontend/prakhyath/ahb_avip_loc/src//hdlTop/masterAgentBFM/AhbMasterAssertion.sv Line: 90 Expr: ~hresp
# ** Info: HRESP is ERROR during error conditions
#    Time: 275 ns Started: 275 ns  Scope: AhbMasterAssertionTb.ahbmasterassertions_u File: /fetools/work_area/frontend/prakhyath/ahb_avip_loc/src//hdlTop/masterAgentBFM/AhbMasterAssertion.sv Line: 98
# ** Info: HADDR is aligned based on HSIZE
#    Time: 275 ns Started: 275 ns  Scope: AhbMasterAssertionTb.ahbmasterassertions_u File: /fetools/work_area/frontend/prakhyath/ahb_avip_loc/src//hdlTop/masterAgentBFM/AhbMasterAssertion.sv Line: 71
# ** Info: HTRANS is Valid
#    Time: 275 ns Started: 275 ns  Scope: AhbMasterAssertionTb.ahbmasterassertions_u File: /fetools/work_area/frontend/prakhyath/ahb_avip_loc/src//hdlTop/masterAgentBFM/AhbMasterAssertion.sv Line: 60
# ** Info: WRAP burst type passed: Address wrapping is done correctly
#    Time: 275 ns Started: 275 ns  Scope: AhbMasterAssertionTb.ahbmasterassertions_u File: /fetools/work_area/frontend/prakhyath/ahb_avip_loc/src//hdlTop/masterAgentBFM/AhbMasterAssertion.sv Line: 137
# ** Info: HWDATA is Valid When HWRITE IS HIGH
#    Time: 275 ns Started: 275 ns  Scope: AhbMasterAssertionTb.ahbmasterassertions_u File: /fetools/work_area/frontend/prakhyath/ahb_avip_loc/src//hdlTop/masterAgentBFM/AhbMasterAssertion.sv Line: 51
# ** Error: HREADY unexpectedly changed when slave was not ready!
#    Time: 275 ns Started: 265 ns  Scope: AhbMasterAssertionTb.ahbmasterassertions_u File: /fetools/work_area/frontend/prakhyath/ahb_avip_loc/src//hdlTop/masterAgentBFM/AhbMasterAssertion.sv Line: 108 Expr: ~hready
# ** Info: HADDR is within the valid range
#    Time: 285 ns Started: 285 ns  Scope: AhbMasterAssertionTb.ahbmasterassertions_u File: /fetools/work_area/frontend/prakhyath/ahb_avip_loc/src//hdlTop/masterAgentBFM/AhbMasterAssertion.sv Line: 80
# ** Error: HRESP is not OKAY for a successful transfer!
#    Time: 285 ns Started: 285 ns  Scope: AhbMasterAssertionTb.ahbmasterassertions_u File: /fetools/work_area/frontend/prakhyath/ahb_avip_loc/src//hdlTop/masterAgentBFM/AhbMasterAssertion.sv Line: 90 Expr: ~hresp
# ** Info: HRESP is ERROR during error conditions
#    Time: 285 ns Started: 285 ns  Scope: AhbMasterAssertionTb.ahbmasterassertions_u File: /fetools/work_area/frontend/prakhyath/ahb_avip_loc/src//hdlTop/masterAgentBFM/AhbMasterAssertion.sv Line: 98
# ** Info: HADDR is aligned based on HSIZE
#    Time: 285 ns Started: 285 ns  Scope: AhbMasterAssertionTb.ahbmasterassertions_u File: /fetools/work_area/frontend/prakhyath/ahb_avip_loc/src//hdlTop/masterAgentBFM/AhbMasterAssertion.sv Line: 71
# ** Info: HTRANS is Valid
#    Time: 285 ns Started: 285 ns  Scope: AhbMasterAssertionTb.ahbmasterassertions_u File: /fetools/work_area/frontend/prakhyath/ahb_avip_loc/src//hdlTop/masterAgentBFM/AhbMasterAssertion.sv Line: 60
# ** Info: WRAP burst type passed: Address wrapping is done correctly
#    Time: 285 ns Started: 285 ns  Scope: AhbMasterAssertionTb.ahbmasterassertions_u File: /fetools/work_area/frontend/prakhyath/ahb_avip_loc/src//hdlTop/masterAgentBFM/AhbMasterAssertion.sv Line: 137
# ** Info: HWDATA is Valid When HWRITE IS HIGH
#    Time: 285 ns Started: 285 ns  Scope: AhbMasterAssertionTb.ahbmasterassertions_u File: /fetools/work_area/frontend/prakhyath/ahb_avip_loc/src//hdlTop/masterAgentBFM/AhbMasterAssertion.sv Line: 51
# ** Info: HADDR is within the valid range
#    Time: 295 ns Started: 295 ns  Scope: AhbMasterAssertionTb.ahbmasterassertions_u File: /fetools/work_area/frontend/prakhyath/ahb_avip_loc/src//hdlTop/masterAgentBFM/AhbMasterAssertion.sv Line: 80
# ** Error: HRESP is not OKAY for a successful transfer!
#    Time: 295 ns Started: 295 ns  Scope: AhbMasterAssertionTb.ahbmasterassertions_u File: /fetools/work_area/frontend/prakhyath/ahb_avip_loc/src//hdlTop/masterAgentBFM/AhbMasterAssertion.sv Line: 90 Expr: ~hresp
# ** Info: HRESP is ERROR during error conditions
#    Time: 295 ns Started: 295 ns  Scope: AhbMasterAssertionTb.ahbmasterassertions_u File: /fetools/work_area/frontend/prakhyath/ahb_avip_loc/src//hdlTop/masterAgentBFM/AhbMasterAssertion.sv Line: 98
# ** Info: HADDR is aligned based on HSIZE
#    Time: 295 ns Started: 295 ns  Scope: AhbMasterAssertionTb.ahbmasterassertions_u File: /fetools/work_area/frontend/prakhyath/ahb_avip_loc/src//hdlTop/masterAgentBFM/AhbMasterAssertion.sv Line: 71
# ** Info: HTRANS is Valid
#    Time: 295 ns Started: 295 ns  Scope: AhbMasterAssertionTb.ahbmasterassertions_u File: /fetools/work_area/frontend/prakhyath/ahb_avip_loc/src//hdlTop/masterAgentBFM/AhbMasterAssertion.sv Line: 60
# ** Info: WRAP burst type passed: Address wrapping is done correctly
#    Time: 295 ns Started: 295 ns  Scope: AhbMasterAssertionTb.ahbmasterassertions_u File: /fetools/work_area/frontend/prakhyath/ahb_avip_loc/src//hdlTop/masterAgentBFM/AhbMasterAssertion.sv Line: 137
# ** Info: HWDATA is Valid When HWRITE IS HIGH
#    Time: 295 ns Started: 295 ns  Scope: AhbMasterAssertionTb.ahbmasterassertions_u File: /fetools/work_area/frontend/prakhyath/ahb_avip_loc/src//hdlTop/masterAgentBFM/AhbMasterAssertion.sv Line: 51
# ** Info: HMASTLOCK is asserted during a locked transfer
#    Time: 305 ns Started: 305 ns  Scope: AhbMasterAssertionTb.ahbmasterassertions_u File: /fetools/work_area/frontend/prakhyath/ahb_avip_loc/src//hdlTop/masterAgentBFM/AhbMasterAssertion.sv Line: 116
# ** Info: HADDR is within the valid range
#    Time: 305 ns Started: 305 ns  Scope: AhbMasterAssertionTb.ahbmasterassertions_u File: /fetools/work_area/frontend/prakhyath/ahb_avip_loc/src//hdlTop/masterAgentBFM/AhbMasterAssertion.sv Line: 80
# ** Error: HRESP is not OKAY for a successful transfer!
#    Time: 305 ns Started: 305 ns  Scope: AhbMasterAssertionTb.ahbmasterassertions_u File: /fetools/work_area/frontend/prakhyath/ahb_avip_loc/src//hdlTop/masterAgentBFM/AhbMasterAssertion.sv Line: 90 Expr: ~hresp
# ** Info: HRESP is ERROR during error conditions
#    Time: 305 ns Started: 305 ns  Scope: AhbMasterAssertionTb.ahbmasterassertions_u File: /fetools/work_area/frontend/prakhyath/ahb_avip_loc/src//hdlTop/masterAgentBFM/AhbMasterAssertion.sv Line: 98
# ** Info: HADDR is aligned based on HSIZE
#    Time: 305 ns Started: 305 ns  Scope: AhbMasterAssertionTb.ahbmasterassertions_u File: /fetools/work_area/frontend/prakhyath/ahb_avip_loc/src//hdlTop/masterAgentBFM/AhbMasterAssertion.sv Line: 71
# ** Info: HTRANS is Valid
#    Time: 305 ns Started: 305 ns  Scope: AhbMasterAssertionTb.ahbmasterassertions_u File: /fetools/work_area/frontend/prakhyath/ahb_avip_loc/src//hdlTop/masterAgentBFM/AhbMasterAssertion.sv Line: 60
# ** Info: WRAP burst type passed: Address wrapping is done correctly
#    Time: 305 ns Started: 305 ns  Scope: AhbMasterAssertionTb.ahbmasterassertions_u File: /fetools/work_area/frontend/prakhyath/ahb_avip_loc/src//hdlTop/masterAgentBFM/AhbMasterAssertion.sv Line: 137
# ** Info: HWDATA is Valid When HWRITE IS HIGH
#    Time: 305 ns Started: 305 ns  Scope: AhbMasterAssertionTb.ahbmasterassertions_u File: /fetools/work_area/frontend/prakhyath/ahb_avip_loc/src//hdlTop/masterAgentBFM/AhbMasterAssertion.sv Line: 51
# ** Info: HMASTLOCK is asserted during a locked transfer
#    Time: 315 ns Started: 315 ns  Scope: AhbMasterAssertionTb.ahbmasterassertions_u File: /fetools/work_area/frontend/prakhyath/ahb_avip_loc/src//hdlTop/masterAgentBFM/AhbMasterAssertion.sv Line: 116
# ** Info: HADDR is within the valid range
#    Time: 315 ns Started: 315 ns  Scope: AhbMasterAssertionTb.ahbmasterassertions_u File: /fetools/work_area/frontend/prakhyath/ahb_avip_loc/src//hdlTop/masterAgentBFM/AhbMasterAssertion.sv Line: 80
# ** Error: HRESP is not OKAY for a successful transfer!
#    Time: 315 ns Started: 315 ns  Scope: AhbMasterAssertionTb.ahbmasterassertions_u File: /fetools/work_area/frontend/prakhyath/ahb_avip_loc/src//hdlTop/masterAgentBFM/AhbMasterAssertion.sv Line: 90 Expr: ~hresp
# ** Info: HRESP is ERROR during error conditions
#    Time: 315 ns Started: 315 ns  Scope: AhbMasterAssertionTb.ahbmasterassertions_u File: /fetools/work_area/frontend/prakhyath/ahb_avip_loc/src//hdlTop/masterAgentBFM/AhbMasterAssertion.sv Line: 98
# ** Info: HADDR is aligned based on HSIZE
#    Time: 315 ns Started: 315 ns  Scope: AhbMasterAssertionTb.ahbmasterassertions_u File: /fetools/work_area/frontend/prakhyath/ahb_avip_loc/src//hdlTop/masterAgentBFM/AhbMasterAssertion.sv Line: 71
# ** Info: HTRANS is Valid
#    Time: 315 ns Started: 315 ns  Scope: AhbMasterAssertionTb.ahbmasterassertions_u File: /fetools/work_area/frontend/prakhyath/ahb_avip_loc/src//hdlTop/masterAgentBFM/AhbMasterAssertion.sv Line: 60
# ** Info: WRAP burst type passed: Address wrapping is done correctly
#    Time: 315 ns Started: 315 ns  Scope: AhbMasterAssertionTb.ahbmasterassertions_u File: /fetools/work_area/frontend/prakhyath/ahb_avip_loc/src//hdlTop/masterAgentBFM/AhbMasterAssertion.sv Line: 137
# ** Info: HWDATA is Valid When HWRITE IS HIGH
#    Time: 315 ns Started: 315 ns  Scope: AhbMasterAssertionTb.ahbmasterassertions_u File: /fetools/work_area/frontend/prakhyath/ahb_avip_loc/src//hdlTop/masterAgentBFM/AhbMasterAssertion.sv Line: 51
# ** Info: HMASTLOCK is asserted during a locked transfer
#    Time: 325 ns Started: 325 ns  Scope: AhbMasterAssertionTb.ahbmasterassertions_u File: /fetools/work_area/frontend/prakhyath/ahb_avip_loc/src//hdlTop/masterAgentBFM/AhbMasterAssertion.sv Line: 116
# ** Info: HADDR is within the valid range
#    Time: 325 ns Started: 325 ns  Scope: AhbMasterAssertionTb.ahbmasterassertions_u File: /fetools/work_area/frontend/prakhyath/ahb_avip_loc/src//hdlTop/masterAgentBFM/AhbMasterAssertion.sv Line: 80
# ** Error: HRESP is not OKAY for a successful transfer!
#    Time: 325 ns Started: 325 ns  Scope: AhbMasterAssertionTb.ahbmasterassertions_u File: /fetools/work_area/frontend/prakhyath/ahb_avip_loc/src//hdlTop/masterAgentBFM/AhbMasterAssertion.sv Line: 90 Expr: ~hresp
# ** Info: HRESP is ERROR during error conditions
#    Time: 325 ns Started: 325 ns  Scope: AhbMasterAssertionTb.ahbmasterassertions_u File: /fetools/work_area/frontend/prakhyath/ahb_avip_loc/src//hdlTop/masterAgentBFM/AhbMasterAssertion.sv Line: 98
# ** Info: HADDR is aligned based on HSIZE
#    Time: 325 ns Started: 325 ns  Scope: AhbMasterAssertionTb.ahbmasterassertions_u File: /fetools/work_area/frontend/prakhyath/ahb_avip_loc/src//hdlTop/masterAgentBFM/AhbMasterAssertion.sv Line: 71
# ** Info: HTRANS is Valid
#    Time: 325 ns Started: 325 ns  Scope: AhbMasterAssertionTb.ahbmasterassertions_u File: /fetools/work_area/frontend/prakhyath/ahb_avip_loc/src//hdlTop/masterAgentBFM/AhbMasterAssertion.sv Line: 60
# ** Info: WRAP burst type passed: Address wrapping is done correctly
#    Time: 325 ns Started: 325 ns  Scope: AhbMasterAssertionTb.ahbmasterassertions_u File: /fetools/work_area/frontend/prakhyath/ahb_avip_loc/src//hdlTop/masterAgentBFM/AhbMasterAssertion.sv Line: 137
# ** Info: HWDATA is Valid When HWRITE IS HIGH
#    Time: 325 ns Started: 325 ns  Scope: AhbMasterAssertionTb.ahbmasterassertions_u File: /fetools/work_area/frontend/prakhyath/ahb_avip_loc/src//hdlTop/masterAgentBFM/AhbMasterAssertion.sv Line: 51
# ** Info: HMASTLOCK is asserted during a locked transfer
#    Time: 335 ns Started: 335 ns  Scope: AhbMasterAssertionTb.ahbmasterassertions_u File: /fetools/work_area/frontend/prakhyath/ahb_avip_loc/src//hdlTop/masterAgentBFM/AhbMasterAssertion.sv Line: 116
# ** Info: HADDR is within the valid range
#    Time: 335 ns Started: 335 ns  Scope: AhbMasterAssertionTb.ahbmasterassertions_u File: /fetools/work_area/frontend/prakhyath/ahb_avip_loc/src//hdlTop/masterAgentBFM/AhbMasterAssertion.sv Line: 80
# ** Error: HRESP is not OKAY for a successful transfer!
#    Time: 335 ns Started: 335 ns  Scope: AhbMasterAssertionTb.ahbmasterassertions_u File: /fetools/work_area/frontend/prakhyath/ahb_avip_loc/src//hdlTop/masterAgentBFM/AhbMasterAssertion.sv Line: 90 Expr: ~hresp
# ** Info: HRESP is ERROR during error conditions
#    Time: 335 ns Started: 335 ns  Scope: AhbMasterAssertionTb.ahbmasterassertions_u File: /fetools/work_area/frontend/prakhyath/ahb_avip_loc/src//hdlTop/masterAgentBFM/AhbMasterAssertion.sv Line: 98
# ** Error: HADDR is not aligned based on HSIZE!
#    Time: 335 ns Started: 335 ns  Scope: AhbMasterAssertionTb.ahbmasterassertions_u File: /fetools/work_area/frontend/prakhyath/ahb_avip_loc/src//hdlTop/masterAgentBFM/AhbMasterAssertion.sv Line: 72 Expr: hsize==2
# ** Info: HTRANS is Valid
#    Time: 335 ns Started: 335 ns  Scope: AhbMasterAssertionTb.ahbmasterassertions_u File: /fetools/work_area/frontend/prakhyath/ahb_avip_loc/src//hdlTop/masterAgentBFM/AhbMasterAssertion.sv Line: 60
# ** Error: INCR burst type failed: Address not incremented correctly!
#    Time: 335 ns Started: 335 ns  Scope: AhbMasterAssertionTb.ahbmasterassertions_u File: /fetools/work_area/frontend/prakhyath/ahb_avip_loc/src//hdlTop/masterAgentBFM/AhbMasterAssertion.sv Line: 127 Expr: haddr==$past(haddr)+(1<<hsize)
# ** Info: HWDATA is Valid When HWRITE IS HIGH
#    Time: 335 ns Started: 335 ns  Scope: AhbMasterAssertionTb.ahbmasterassertions_u File: /fetools/work_area/frontend/prakhyath/ahb_avip_loc/src//hdlTop/masterAgentBFM/AhbMasterAssertion.sv Line: 51
# ** Info: HMASTLOCK is asserted during a locked transfer
#    Time: 345 ns Started: 345 ns  Scope: AhbMasterAssertionTb.ahbmasterassertions_u File: /fetools/work_area/frontend/prakhyath/ahb_avip_loc/src//hdlTop/masterAgentBFM/AhbMasterAssertion.sv Line: 116
# ** Info: HADDR is within the valid range
#    Time: 345 ns Started: 345 ns  Scope: AhbMasterAssertionTb.ahbmasterassertions_u File: /fetools/work_area/frontend/prakhyath/ahb_avip_loc/src//hdlTop/masterAgentBFM/AhbMasterAssertion.sv Line: 80
# ** Error: HRESP is not OKAY for a successful transfer!
#    Time: 345 ns Started: 345 ns  Scope: AhbMasterAssertionTb.ahbmasterassertions_u File: /fetools/work_area/frontend/prakhyath/ahb_avip_loc/src//hdlTop/masterAgentBFM/AhbMasterAssertion.sv Line: 90 Expr: ~hresp
# ** Info: HRESP is ERROR during error conditions
#    Time: 345 ns Started: 345 ns  Scope: AhbMasterAssertionTb.ahbmasterassertions_u File: /fetools/work_area/frontend/prakhyath/ahb_avip_loc/src//hdlTop/masterAgentBFM/AhbMasterAssertion.sv Line: 98
# ** Error: HADDR is not aligned based on HSIZE!
#    Time: 345 ns Started: 345 ns  Scope: AhbMasterAssertionTb.ahbmasterassertions_u File: /fetools/work_area/frontend/prakhyath/ahb_avip_loc/src//hdlTop/masterAgentBFM/AhbMasterAssertion.sv Line: 72 Expr: hsize==2
# ** Info: HTRANS is Valid
#    Time: 345 ns Started: 345 ns  Scope: AhbMasterAssertionTb.ahbmasterassertions_u File: /fetools/work_area/frontend/prakhyath/ahb_avip_loc/src//hdlTop/masterAgentBFM/AhbMasterAssertion.sv Line: 60
# ** Error: INCR burst type failed: Address not incremented correctly!
#    Time: 345 ns Started: 345 ns  Scope: AhbMasterAssertionTb.ahbmasterassertions_u File: /fetools/work_area/frontend/prakhyath/ahb_avip_loc/src//hdlTop/masterAgentBFM/AhbMasterAssertion.sv Line: 127 Expr: haddr==$past(haddr)+(1<<hsize)
# ** Info: HWDATA is Valid When HWRITE IS HIGH
#    Time: 345 ns Started: 345 ns  Scope: AhbMasterAssertionTb.ahbmasterassertions_u File: /fetools/work_area/frontend/prakhyath/ahb_avip_loc/src//hdlTop/masterAgentBFM/AhbMasterAssertion.sv Line: 51
# ** Info: HMASTLOCK is asserted during a locked transfer
#    Time: 355 ns Started: 355 ns  Scope: AhbMasterAssertionTb.ahbmasterassertions_u File: /fetools/work_area/frontend/prakhyath/ahb_avip_loc/src//hdlTop/masterAgentBFM/AhbMasterAssertion.sv Line: 116
# ** Info: HADDR is within the valid range
#    Time: 355 ns Started: 355 ns  Scope: AhbMasterAssertionTb.ahbmasterassertions_u File: /fetools/work_area/frontend/prakhyath/ahb_avip_loc/src//hdlTop/masterAgentBFM/AhbMasterAssertion.sv Line: 80
# ** Error: HRESP is not OKAY for a successful transfer!
#    Time: 355 ns Started: 355 ns  Scope: AhbMasterAssertionTb.ahbmasterassertions_u File: /fetools/work_area/frontend/prakhyath/ahb_avip_loc/src//hdlTop/masterAgentBFM/AhbMasterAssertion.sv Line: 90 Expr: ~hresp
# ** Info: HRESP is ERROR during error conditions
#    Time: 355 ns Started: 355 ns  Scope: AhbMasterAssertionTb.ahbmasterassertions_u File: /fetools/work_area/frontend/prakhyath/ahb_avip_loc/src//hdlTop/masterAgentBFM/AhbMasterAssertion.sv Line: 98
# ** Error: HADDR is not aligned based on HSIZE!
#    Time: 355 ns Started: 355 ns  Scope: AhbMasterAssertionTb.ahbmasterassertions_u File: /fetools/work_area/frontend/prakhyath/ahb_avip_loc/src//hdlTop/masterAgentBFM/AhbMasterAssertion.sv Line: 72 Expr: hsize==2
# ** Info: HTRANS is Valid
#    Time: 355 ns Started: 355 ns  Scope: AhbMasterAssertionTb.ahbmasterassertions_u File: /fetools/work_area/frontend/prakhyath/ahb_avip_loc/src//hdlTop/masterAgentBFM/AhbMasterAssertion.sv Line: 60
# ** Error: INCR burst type failed: Address not incremented correctly!
#    Time: 355 ns Started: 355 ns  Scope: AhbMasterAssertionTb.ahbmasterassertions_u File: /fetools/work_area/frontend/prakhyath/ahb_avip_loc/src//hdlTop/masterAgentBFM/AhbMasterAssertion.sv Line: 127 Expr: haddr==$past(haddr)+(1<<hsize)
# ** Info: HWDATA is Valid When HWRITE IS HIGH
#    Time: 355 ns Started: 355 ns  Scope: AhbMasterAssertionTb.ahbmasterassertions_u File: /fetools/work_area/frontend/prakhyath/ahb_avip_loc/src//hdlTop/masterAgentBFM/AhbMasterAssertion.sv Line: 51
# ** Info: HMASTLOCK is asserted during a locked transfer
#    Time: 365 ns Started: 365 ns  Scope: AhbMasterAssertionTb.ahbmasterassertions_u File: /fetools/work_area/frontend/prakhyath/ahb_avip_loc/src//hdlTop/masterAgentBFM/AhbMasterAssertion.sv Line: 116
# ** Info: HADDR is within the valid range
#    Time: 365 ns Started: 365 ns  Scope: AhbMasterAssertionTb.ahbmasterassertions_u File: /fetools/work_area/frontend/prakhyath/ahb_avip_loc/src//hdlTop/masterAgentBFM/AhbMasterAssertion.sv Line: 80
# ** Error: HRESP is not OKAY for a successful transfer!
#    Time: 365 ns Started: 365 ns  Scope: AhbMasterAssertionTb.ahbmasterassertions_u File: /fetools/work_area/frontend/prakhyath/ahb_avip_loc/src//hdlTop/masterAgentBFM/AhbMasterAssertion.sv Line: 90 Expr: ~hresp
# ** Info: HRESP is ERROR during error conditions
#    Time: 365 ns Started: 365 ns  Scope: AhbMasterAssertionTb.ahbmasterassertions_u File: /fetools/work_area/frontend/prakhyath/ahb_avip_loc/src//hdlTop/masterAgentBFM/AhbMasterAssertion.sv Line: 98
# ** Info: HADDR is aligned based on HSIZE
#    Time: 365 ns Started: 365 ns  Scope: AhbMasterAssertionTb.ahbmasterassertions_u File: /fetools/work_area/frontend/prakhyath/ahb_avip_loc/src//hdlTop/masterAgentBFM/AhbMasterAssertion.sv Line: 71
# ** Info: HTRANS is Valid
#    Time: 365 ns Started: 365 ns  Scope: AhbMasterAssertionTb.ahbmasterassertions_u File: /fetools/work_area/frontend/prakhyath/ahb_avip_loc/src//hdlTop/masterAgentBFM/AhbMasterAssertion.sv Line: 60
# ** Error: INCR burst type failed: Address not incremented correctly!
#    Time: 365 ns Started: 365 ns  Scope: AhbMasterAssertionTb.ahbmasterassertions_u File: /fetools/work_area/frontend/prakhyath/ahb_avip_loc/src//hdlTop/masterAgentBFM/AhbMasterAssertion.sv Line: 127 Expr: haddr==$past(haddr)+(1<<hsize)
# ** Info: HWDATA is Valid When HWRITE IS HIGH
#    Time: 365 ns Started: 365 ns  Scope: AhbMasterAssertionTb.ahbmasterassertions_u File: /fetools/work_area/frontend/prakhyath/ahb_avip_loc/src//hdlTop/masterAgentBFM/AhbMasterAssertion.sv Line: 51
# ** Info: HMASTLOCK is asserted during a locked transfer
#    Time: 375 ns Started: 375 ns  Scope: AhbMasterAssertionTb.ahbmasterassertions_u File: /fetools/work_area/frontend/prakhyath/ahb_avip_loc/src//hdlTop/masterAgentBFM/AhbMasterAssertion.sv Line: 116
# ** Info: HADDR is within the valid range
#    Time: 375 ns Started: 375 ns  Scope: AhbMasterAssertionTb.ahbmasterassertions_u File: /fetools/work_area/frontend/prakhyath/ahb_avip_loc/src//hdlTop/masterAgentBFM/AhbMasterAssertion.sv Line: 80
# ** Error: HRESP is not OKAY for a successful transfer!
#    Time: 375 ns Started: 375 ns  Scope: AhbMasterAssertionTb.ahbmasterassertions_u File: /fetools/work_area/frontend/prakhyath/ahb_avip_loc/src//hdlTop/masterAgentBFM/AhbMasterAssertion.sv Line: 90 Expr: ~hresp
# ** Info: HRESP is ERROR during error conditions
#    Time: 375 ns Started: 375 ns  Scope: AhbMasterAssertionTb.ahbmasterassertions_u File: /fetools/work_area/frontend/prakhyath/ahb_avip_loc/src//hdlTop/masterAgentBFM/AhbMasterAssertion.sv Line: 98
# ** Info: HADDR is aligned based on HSIZE
#    Time: 375 ns Started: 375 ns  Scope: AhbMasterAssertionTb.ahbmasterassertions_u File: /fetools/work_area/frontend/prakhyath/ahb_avip_loc/src//hdlTop/masterAgentBFM/AhbMasterAssertion.sv Line: 71
# ** Info: HTRANS is Valid
#    Time: 375 ns Started: 375 ns  Scope: AhbMasterAssertionTb.ahbmasterassertions_u File: /fetools/work_area/frontend/prakhyath/ahb_avip_loc/src//hdlTop/masterAgentBFM/AhbMasterAssertion.sv Line: 60
# ** Error: INCR burst type failed: Address not incremented correctly!
#    Time: 375 ns Started: 375 ns  Scope: AhbMasterAssertionTb.ahbmasterassertions_u File: /fetools/work_area/frontend/prakhyath/ahb_avip_loc/src//hdlTop/masterAgentBFM/AhbMasterAssertion.sv Line: 127 Expr: haddr==$past(haddr)+(1<<hsize)
# ** Info: HWDATA is Valid When HWRITE IS HIGH
#    Time: 375 ns Started: 375 ns  Scope: AhbMasterAssertionTb.ahbmasterassertions_u File: /fetools/work_area/frontend/prakhyath/ahb_avip_loc/src//hdlTop/masterAgentBFM/AhbMasterAssertion.sv Line: 51
# ** Info: HMASTLOCK is asserted during a locked transfer
#    Time: 385 ns Started: 385 ns  Scope: AhbMasterAssertionTb.ahbmasterassertions_u File: /fetools/work_area/frontend/prakhyath/ahb_avip_loc/src//hdlTop/masterAgentBFM/AhbMasterAssertion.sv Line: 116
# ** Info: HADDR is within the valid range
#    Time: 385 ns Started: 385 ns  Scope: AhbMasterAssertionTb.ahbmasterassertions_u File: /fetools/work_area/frontend/prakhyath/ahb_avip_loc/src//hdlTop/masterAgentBFM/AhbMasterAssertion.sv Line: 80
# ** Error: HRESP is not OKAY for a successful transfer!
#    Time: 385 ns Started: 385 ns  Scope: AhbMasterAssertionTb.ahbmasterassertions_u File: /fetools/work_area/frontend/prakhyath/ahb_avip_loc/src//hdlTop/masterAgentBFM/AhbMasterAssertion.sv Line: 90 Expr: ~hresp
# ** Info: HRESP is ERROR during error conditions
#    Time: 385 ns Started: 385 ns  Scope: AhbMasterAssertionTb.ahbmasterassertions_u File: /fetools/work_area/frontend/prakhyath/ahb_avip_loc/src//hdlTop/masterAgentBFM/AhbMasterAssertion.sv Line: 98
# ** Info: HADDR is aligned based on HSIZE
#    Time: 385 ns Started: 385 ns  Scope: AhbMasterAssertionTb.ahbmasterassertions_u File: /fetools/work_area/frontend/prakhyath/ahb_avip_loc/src//hdlTop/masterAgentBFM/AhbMasterAssertion.sv Line: 71
# ** Info: HTRANS is Valid
#    Time: 385 ns Started: 385 ns  Scope: AhbMasterAssertionTb.ahbmasterassertions_u File: /fetools/work_area/frontend/prakhyath/ahb_avip_loc/src//hdlTop/masterAgentBFM/AhbMasterAssertion.sv Line: 60
# ** Error: INCR burst type failed: Address not incremented correctly!
#    Time: 385 ns Started: 385 ns  Scope: AhbMasterAssertionTb.ahbmasterassertions_u File: /fetools/work_area/frontend/prakhyath/ahb_avip_loc/src//hdlTop/masterAgentBFM/AhbMasterAssertion.sv Line: 127 Expr: haddr==$past(haddr)+(1<<hsize)
# ** Info: HWDATA is Valid When HWRITE IS HIGH
#    Time: 385 ns Started: 385 ns  Scope: AhbMasterAssertionTb.ahbmasterassertions_u File: /fetools/work_area/frontend/prakhyath/ahb_avip_loc/src//hdlTop/masterAgentBFM/AhbMasterAssertion.sv Line: 51
# ** Info: HMASTLOCK is asserted during a locked transfer
#    Time: 395 ns Started: 395 ns  Scope: AhbMasterAssertionTb.ahbmasterassertions_u File: /fetools/work_area/frontend/prakhyath/ahb_avip_loc/src//hdlTop/masterAgentBFM/AhbMasterAssertion.sv Line: 116
# ** Info: HADDR is within the valid range
#    Time: 395 ns Started: 395 ns  Scope: AhbMasterAssertionTb.ahbmasterassertions_u File: /fetools/work_area/frontend/prakhyath/ahb_avip_loc/src//hdlTop/masterAgentBFM/AhbMasterAssertion.sv Line: 80
# ** Error: HRESP is not OKAY for a successful transfer!
#    Time: 395 ns Started: 395 ns  Scope: AhbMasterAssertionTb.ahbmasterassertions_u File: /fetools/work_area/frontend/prakhyath/ahb_avip_loc/src//hdlTop/masterAgentBFM/AhbMasterAssertion.sv Line: 90 Expr: ~hresp
# ** Info: HRESP is ERROR during error conditions
#    Time: 395 ns Started: 395 ns  Scope: AhbMasterAssertionTb.ahbmasterassertions_u File: /fetools/work_area/frontend/prakhyath/ahb_avip_loc/src//hdlTop/masterAgentBFM/AhbMasterAssertion.sv Line: 98
# ** Info: HADDR is aligned based on HSIZE
#    Time: 395 ns Started: 395 ns  Scope: AhbMasterAssertionTb.ahbmasterassertions_u File: /fetools/work_area/frontend/prakhyath/ahb_avip_loc/src//hdlTop/masterAgentBFM/AhbMasterAssertion.sv Line: 71
# ** Info: HTRANS is Valid
#    Time: 395 ns Started: 395 ns  Scope: AhbMasterAssertionTb.ahbmasterassertions_u File: /fetools/work_area/frontend/prakhyath/ahb_avip_loc/src//hdlTop/masterAgentBFM/AhbMasterAssertion.sv Line: 60
# ** Info: WRAP burst type passed: Address wrapping is done correctly
#    Time: 395 ns Started: 395 ns  Scope: AhbMasterAssertionTb.ahbmasterassertions_u File: /fetools/work_area/frontend/prakhyath/ahb_avip_loc/src//hdlTop/masterAgentBFM/AhbMasterAssertion.sv Line: 137
# ** Info: HWDATA is Valid When HWRITE IS HIGH
#    Time: 395 ns Started: 395 ns  Scope: AhbMasterAssertionTb.ahbmasterassertions_u File: /fetools/work_area/frontend/prakhyath/ahb_avip_loc/src//hdlTop/masterAgentBFM/AhbMasterAssertion.sv Line: 51
# ** Info: HMASTLOCK is asserted during a locked transfer
#    Time: 405 ns Started: 405 ns  Scope: AhbMasterAssertionTb.ahbmasterassertions_u File: /fetools/work_area/frontend/prakhyath/ahb_avip_loc/src//hdlTop/masterAgentBFM/AhbMasterAssertion.sv Line: 116
# ** Info: HADDR is within the valid range
#    Time: 405 ns Started: 405 ns  Scope: AhbMasterAssertionTb.ahbmasterassertions_u File: /fetools/work_area/frontend/prakhyath/ahb_avip_loc/src//hdlTop/masterAgentBFM/AhbMasterAssertion.sv Line: 80
# ** Error: HRESP is not OKAY for a successful transfer!
#    Time: 405 ns Started: 405 ns  Scope: AhbMasterAssertionTb.ahbmasterassertions_u File: /fetools/work_area/frontend/prakhyath/ahb_avip_loc/src//hdlTop/masterAgentBFM/AhbMasterAssertion.sv Line: 90 Expr: ~hresp
# ** Info: HRESP is ERROR during error conditions
#    Time: 405 ns Started: 405 ns  Scope: AhbMasterAssertionTb.ahbmasterassertions_u File: /fetools/work_area/frontend/prakhyath/ahb_avip_loc/src//hdlTop/masterAgentBFM/AhbMasterAssertion.sv Line: 98
# ** Info: HADDR is aligned based on HSIZE
#    Time: 405 ns Started: 405 ns  Scope: AhbMasterAssertionTb.ahbmasterassertions_u File: /fetools/work_area/frontend/prakhyath/ahb_avip_loc/src//hdlTop/masterAgentBFM/AhbMasterAssertion.sv Line: 71
# ** Info: HTRANS is Valid
#    Time: 405 ns Started: 405 ns  Scope: AhbMasterAssertionTb.ahbmasterassertions_u File: /fetools/work_area/frontend/prakhyath/ahb_avip_loc/src//hdlTop/masterAgentBFM/AhbMasterAssertion.sv Line: 60
# ** Info: WRAP burst type passed: Address wrapping is done correctly
#    Time: 405 ns Started: 405 ns  Scope: AhbMasterAssertionTb.ahbmasterassertions_u File: /fetools/work_area/frontend/prakhyath/ahb_avip_loc/src//hdlTop/masterAgentBFM/AhbMasterAssertion.sv Line: 137
# ** Info: HWDATA is Valid When HWRITE IS HIGH
#    Time: 405 ns Started: 405 ns  Scope: AhbMasterAssertionTb.ahbmasterassertions_u File: /fetools/work_area/frontend/prakhyath/ahb_avip_loc/src//hdlTop/masterAgentBFM/AhbMasterAssertion.sv Line: 51
# ** Note: $finish    : /fetools/work_area/frontend/prakhyath/ahb_avip_loc/src//hvlTop/tb/AhbMasterAssertionTb.sv(220)
#    Time: 410 ns  Iteration: 0  Instance: /AhbMasterAssertionTb
# Saving coverage database on exit...
# End time: 11:11:05 on Jan 31,2025, Elapsed time: 0:00:04
# Errors: 55, Warnings: 0
