# vsim -vopt work.AhbMasterAssertionTb -voptargs="+acc=npr" -assertdebug "+UVM_TESTNAME=AhbMasterAssertionTb" "+UVM_VERBOSITY=UVM_MEDIUM" -l AhbMasterAssertionTb/AhbMasterAssertionTb.log -sva -coverage -c -do "log -r /*; add wave -r /*; coverage save -onexit -assert -directive -cvg -codeAll AhbMasterAssertionTb/coverage.ucdb; run -all; exit" -wlf AhbMasterAssertionTb/waveform.wlf 
# Start time: 13:19:26 on Feb 11,2025
# ** Note: (vsim-3812) Design is being optimized...
# //  Questa Sim
# //  Version 10.6c linux Jul 25 2017
# //
# //  Copyright 1991-2017 Mentor Graphics Corporation
# //  All Rights Reserved.
# //
# //  QuestaSim and its associated documentation contain trade
# //  secrets and commercial or financial information that are the property of
# //  Mentor Graphics Corporation and are privileged, confidential,
# //  and exempt from disclosure under the Freedom of Information Act,
# //  5 U.S.C. Section 552. Furthermore, this information
# //  is prohibited from disclosure under the Trade Secrets Act,
# //  18 U.S.C. Section 1905.
# //
# Loading sv_std.std
# Loading mtiUvm.uvm_pkg
# Loading work.AhbGlobalPackage(fast)
# Loading work.AhbMasterAssertionTb_sv_unit(fast)
# Loading work.AhbMasterAssertionTb(fast)
# Loading work.AhbMasterAssertion_sv_unit(fast)
# Loading work.AhbMasterAssertion(fast)
# Loading mtiUvm.questa_uvm_pkg(fast)
# Loading /tools/mentor/questasim_10.6c/questasim/uvm-1.1d/linux/uvm_dpi.so
# log -r /*
#  add wave -r /*
#  coverage save -onexit -assert -directive -cvg -codeAll AhbMasterAssertionTb/coverage.ucdb
#  run -all
# ----------------------------------------------------------------
# UVM-1.1d
# (C) 2007-2013 Mentor Graphics Corporation
# (C) 2007-2013 Cadence Design Systems, Inc.
# (C) 2006-2013 Synopsys, Inc.
# (C) 2011-2013 Cypress Semiconductor Corp.
# ----------------------------------------------------------------
# 
#   ***********       IMPORTANT RELEASE NOTES         ************
# 
#   You are using a version of the UVM library that has been compiled
#   with `UVM_NO_DEPRECATED undefined.
#   See http://www.eda.org/svdb/view.php?id=3313 for more details.
# 
#   You are using a version of the UVM library that has been compiled
#   with `UVM_OBJECT_MUST_HAVE_CONSTRUCTOR undefined.
#   See http://www.eda.org/svdb/view.php?id=3770 for more details.
# 
#       (Specify +UVM_NO_RELNOTES to turn off this notice)
# 
# UVM_INFO verilog_src/questa_uvm_pkg-1.2/src/questa_uvm_pkg.sv(215) @ 0: reporter [Questa UVM] QUESTA_UVM-1.2.3
# UVM_INFO verilog_src/questa_uvm_pkg-1.2/src/questa_uvm_pkg.sv(217) @ 0: reporter [Questa UVM]  questa_uvm::init(+struct)
# UVM_INFO /fetools/work_area/frontend/prakhyath/ahb_avip_loc/src//hdlTop/masterAgentBFM/AhbMasterAssertion.sv(29) @ 0: reporter [MASTER_ASSERTIONS] MASTER_ASSERTIONS
# UVM_INFO /fetools/work_area/frontend/prakhyath/ahb_avip_loc/src//hvlTop/tb/AhbMasterAssertionTb.sv(100) @ 0: reporter [AhbMasterAssertionTb] Initializing signals when resetn is deasserted started
# UVM_INFO /fetools/work_area/frontend/prakhyath/ahb_avip_loc/src//hvlTop/tb/AhbMasterAssertionTb.sv(119) @ 5: reporter [AhbMasterAssertionTb] Initializing signals ended
# UVM_INFO /fetools/work_area/frontend/prakhyath/ahb_avip_loc/src//hvlTop/tb/AhbMasterAssertionTb.sv(123) @ 5: reporter [AhbMasterAssertionTb] Check that HWDATA is valid when HWRITE is HIGH AssertionPass Task started
# ** Info: HADDR is within the valid range
#    Time: 15 ns Started: 15 ns  Scope: AhbMasterAssertionTb.ahbmasterassertions_u File: /fetools/work_area/frontend/prakhyath/ahb_avip_loc/src//hdlTop/masterAgentBFM/AhbMasterAssertion.sv Line: 67
# ** Info: HRESP is OKAY during a successful transfer
#    Time: 15 ns Started: 15 ns  Scope: AhbMasterAssertionTb.ahbmasterassertions_u File: /fetools/work_area/frontend/prakhyath/ahb_avip_loc/src//hdlTop/masterAgentBFM/AhbMasterAssertion.sv Line: 76
# ** Info: HADDR is aligned based on HSIZE
#    Time: 15 ns Started: 15 ns  Scope: AhbMasterAssertionTb.ahbmasterassertions_u File: /fetools/work_area/frontend/prakhyath/ahb_avip_loc/src//hdlTop/masterAgentBFM/AhbMasterAssertion.sv Line: 57
# ** Info: HTRANS is Valid
#    Time: 15 ns Started: 15 ns  Scope: AhbMasterAssertionTb.ahbmasterassertions_u File: /fetools/work_area/frontend/prakhyath/ahb_avip_loc/src//hdlTop/masterAgentBFM/AhbMasterAssertion.sv Line: 47
# ** Error: Transition from BUSY to SEQ failed: Conditions not met!
#    Time: 15 ns Started: 15 ns  Scope: AhbMasterAssertionTb.ahbmasterassertions_u File: /fetools/work_area/frontend/prakhyath/ahb_avip_loc/src//hdlTop/masterAgentBFM/AhbMasterAssertion.sv Line: 133 Expr: htrans==1
# ** Info: INCR burst type passed: Address incremented correctly
#    Time: 25 ns Started: 25 ns  Scope: AhbMasterAssertionTb.ahbmasterassertions_u File: /fetools/work_area/frontend/prakhyath/ahb_avip_loc/src//hdlTop/masterAgentBFM/AhbMasterAssertion.sv Line: 112
# ** Info: HADDR is within the valid range
#    Time: 25 ns Started: 25 ns  Scope: AhbMasterAssertionTb.ahbmasterassertions_u File: /fetools/work_area/frontend/prakhyath/ahb_avip_loc/src//hdlTop/masterAgentBFM/AhbMasterAssertion.sv Line: 67
# ** Info: HRESP is OKAY during a successful transfer
#    Time: 25 ns Started: 25 ns  Scope: AhbMasterAssertionTb.ahbmasterassertions_u File: /fetools/work_area/frontend/prakhyath/ahb_avip_loc/src//hdlTop/masterAgentBFM/AhbMasterAssertion.sv Line: 76
# ** Info: HADDR is aligned based on HSIZE
#    Time: 25 ns Started: 25 ns  Scope: AhbMasterAssertionTb.ahbmasterassertions_u File: /fetools/work_area/frontend/prakhyath/ahb_avip_loc/src//hdlTop/masterAgentBFM/AhbMasterAssertion.sv Line: 57
# ** Info: HTRANS is Valid
#    Time: 25 ns Started: 25 ns  Scope: AhbMasterAssertionTb.ahbmasterassertions_u File: /fetools/work_area/frontend/prakhyath/ahb_avip_loc/src//hdlTop/masterAgentBFM/AhbMasterAssertion.sv Line: 47
# ** Error: Address changed before HREADY HIGH!
#    Time: 25 ns Started: 15 ns  Scope: AhbMasterAssertionTb.ahbmasterassertions_u File: /fetools/work_area/frontend/prakhyath/ahb_avip_loc/src//hdlTop/masterAgentBFM/AhbMasterAssertion.sv Line: 162 Expr: $stable(haddr)
# ** Error: HWDATA contains X when HWRITE is asserted!
#    Time: 25 ns Started: 15 ns  Scope: AhbMasterAssertionTb.ahbmasterassertions_u File: /fetools/work_area/frontend/prakhyath/ahb_avip_loc/src//hdlTop/masterAgentBFM/AhbMasterAssertion.sv Line: 39 Expr: ~$isunknown(hwdata)
# ** Info: HREADY remains stable during wait states
#    Time: 25 ns Started: 15 ns  Scope: AhbMasterAssertionTb.ahbmasterassertions_u File: /fetools/work_area/frontend/prakhyath/ahb_avip_loc/src//hdlTop/masterAgentBFM/AhbMasterAssertion.sv Line: 94
# ** Error: Transition from BUSY to SEQ failed: Conditions not met!
#    Time: 25 ns Started: 25 ns  Scope: AhbMasterAssertionTb.ahbmasterassertions_u File: /fetools/work_area/frontend/prakhyath/ahb_avip_loc/src//hdlTop/masterAgentBFM/AhbMasterAssertion.sv Line: 133 Expr: htrans==1
# UVM_INFO /fetools/work_area/frontend/prakhyath/ahb_avip_loc/src//hvlTop/tb/AhbMasterAssertionTb.sv(133) @ 35: reporter [AhbMasterAssertionTb] Check that HWDATA is valid when HWRITE is HIGH AssertionPass Task ended
# UVM_INFO /fetools/work_area/frontend/prakhyath/ahb_avip_loc/src//hvlTop/tb/AhbMasterAssertionTb.sv(137) @ 35: reporter [AhbMasterAssertionTb] Check that HWDATA is valid when HWRITE is HIGH AssertionFail Task started
# ** Error: INCR burst type failed: Address not incremented correctly!
#    Time: 35 ns Started: 35 ns  Scope: AhbMasterAssertionTb.ahbmasterassertions_u File: /fetools/work_area/frontend/prakhyath/ahb_avip_loc/src//hdlTop/masterAgentBFM/AhbMasterAssertion.sv Line: 113 Expr: haddr==$past(haddr)+(1<<hsize)
# ** Info: HADDR is within the valid range
#    Time: 35 ns Started: 35 ns  Scope: AhbMasterAssertionTb.ahbmasterassertions_u File: /fetools/work_area/frontend/prakhyath/ahb_avip_loc/src//hdlTop/masterAgentBFM/AhbMasterAssertion.sv Line: 67
# ** Info: HRESP is OKAY during a successful transfer
#    Time: 35 ns Started: 35 ns  Scope: AhbMasterAssertionTb.ahbmasterassertions_u File: /fetools/work_area/frontend/prakhyath/ahb_avip_loc/src//hdlTop/masterAgentBFM/AhbMasterAssertion.sv Line: 76
# ** Info: HADDR is aligned based on HSIZE
#    Time: 35 ns Started: 35 ns  Scope: AhbMasterAssertionTb.ahbmasterassertions_u File: /fetools/work_area/frontend/prakhyath/ahb_avip_loc/src//hdlTop/masterAgentBFM/AhbMasterAssertion.sv Line: 57
# ** Info: HTRANS is Valid
#    Time: 35 ns Started: 35 ns  Scope: AhbMasterAssertionTb.ahbmasterassertions_u File: /fetools/work_area/frontend/prakhyath/ahb_avip_loc/src//hdlTop/masterAgentBFM/AhbMasterAssertion.sv Line: 47
# ** Error: Address changed before HREADY HIGH!
#    Time: 35 ns Started: 25 ns  Scope: AhbMasterAssertionTb.ahbmasterassertions_u File: /fetools/work_area/frontend/prakhyath/ahb_avip_loc/src//hdlTop/masterAgentBFM/AhbMasterAssertion.sv Line: 162 Expr: hready==0
# ** Info: HWDATA is Valid When HWRITE IS HIGH
#    Time: 35 ns Started: 25 ns  Scope: AhbMasterAssertionTb.ahbmasterassertions_u File: /fetools/work_area/frontend/prakhyath/ahb_avip_loc/src//hdlTop/masterAgentBFM/AhbMasterAssertion.sv Line: 38
# ** Info: HREADY remains stable during wait states
#    Time: 35 ns Started: 25 ns  Scope: AhbMasterAssertionTb.ahbmasterassertions_u File: /fetools/work_area/frontend/prakhyath/ahb_avip_loc/src//hdlTop/masterAgentBFM/AhbMasterAssertion.sv Line: 94
# ** Error: Transition from BUSY to SEQ failed: Conditions not met!
#    Time: 35 ns Started: 35 ns  Scope: AhbMasterAssertionTb.ahbmasterassertions_u File: /fetools/work_area/frontend/prakhyath/ahb_avip_loc/src//hdlTop/masterAgentBFM/AhbMasterAssertion.sv Line: 133 Expr: htrans==1
# ** Error: INCR burst type failed: Address not incremented correctly!
#    Time: 45 ns Started: 45 ns  Scope: AhbMasterAssertionTb.ahbmasterassertions_u File: /fetools/work_area/frontend/prakhyath/ahb_avip_loc/src//hdlTop/masterAgentBFM/AhbMasterAssertion.sv Line: 113 Expr: haddr==$past(haddr)+(1<<hsize)
# ** Info: HADDR is within the valid range
#    Time: 45 ns Started: 45 ns  Scope: AhbMasterAssertionTb.ahbmasterassertions_u File: /fetools/work_area/frontend/prakhyath/ahb_avip_loc/src//hdlTop/masterAgentBFM/AhbMasterAssertion.sv Line: 67
# ** Info: HRESP is OKAY during a successful transfer
#    Time: 45 ns Started: 45 ns  Scope: AhbMasterAssertionTb.ahbmasterassertions_u File: /fetools/work_area/frontend/prakhyath/ahb_avip_loc/src//hdlTop/masterAgentBFM/AhbMasterAssertion.sv Line: 76
# ** Info: HADDR is aligned based on HSIZE
#    Time: 45 ns Started: 45 ns  Scope: AhbMasterAssertionTb.ahbmasterassertions_u File: /fetools/work_area/frontend/prakhyath/ahb_avip_loc/src//hdlTop/masterAgentBFM/AhbMasterAssertion.sv Line: 57
# ** Info: HTRANS is Valid
#    Time: 45 ns Started: 45 ns  Scope: AhbMasterAssertionTb.ahbmasterassertions_u File: /fetools/work_area/frontend/prakhyath/ahb_avip_loc/src//hdlTop/masterAgentBFM/AhbMasterAssertion.sv Line: 47
# ** Error: Address changed before HREADY HIGH!
#    Time: 45 ns Started: 35 ns  Scope: AhbMasterAssertionTb.ahbmasterassertions_u File: /fetools/work_area/frontend/prakhyath/ahb_avip_loc/src//hdlTop/masterAgentBFM/AhbMasterAssertion.sv Line: 162 Expr: hready==0
# ** Info: HWDATA is Valid When HWRITE IS HIGH
#    Time: 45 ns Started: 35 ns  Scope: AhbMasterAssertionTb.ahbmasterassertions_u File: /fetools/work_area/frontend/prakhyath/ahb_avip_loc/src//hdlTop/masterAgentBFM/AhbMasterAssertion.sv Line: 38
# ** Info: HREADY remains stable during wait states
#    Time: 45 ns Started: 35 ns  Scope: AhbMasterAssertionTb.ahbmasterassertions_u File: /fetools/work_area/frontend/prakhyath/ahb_avip_loc/src//hdlTop/masterAgentBFM/AhbMasterAssertion.sv Line: 94
# ** Error: Transition from BUSY to SEQ failed: Conditions not met!
#    Time: 45 ns Started: 45 ns  Scope: AhbMasterAssertionTb.ahbmasterassertions_u File: /fetools/work_area/frontend/prakhyath/ahb_avip_loc/src//hdlTop/masterAgentBFM/AhbMasterAssertion.sv Line: 133 Expr: htrans==1
# ** Error: INCR burst type failed: Address not incremented correctly!
#    Time: 55 ns Started: 55 ns  Scope: AhbMasterAssertionTb.ahbmasterassertions_u File: /fetools/work_area/frontend/prakhyath/ahb_avip_loc/src//hdlTop/masterAgentBFM/AhbMasterAssertion.sv Line: 113 Expr: haddr==$past(haddr)+(1<<hsize)
# ** Info: HADDR is within the valid range
#    Time: 55 ns Started: 55 ns  Scope: AhbMasterAssertionTb.ahbmasterassertions_u File: /fetools/work_area/frontend/prakhyath/ahb_avip_loc/src//hdlTop/masterAgentBFM/AhbMasterAssertion.sv Line: 67
# ** Info: HRESP is OKAY during a successful transfer
#    Time: 55 ns Started: 55 ns  Scope: AhbMasterAssertionTb.ahbmasterassertions_u File: /fetools/work_area/frontend/prakhyath/ahb_avip_loc/src//hdlTop/masterAgentBFM/AhbMasterAssertion.sv Line: 76
# ** Info: HADDR is aligned based on HSIZE
#    Time: 55 ns Started: 55 ns  Scope: AhbMasterAssertionTb.ahbmasterassertions_u File: /fetools/work_area/frontend/prakhyath/ahb_avip_loc/src//hdlTop/masterAgentBFM/AhbMasterAssertion.sv Line: 57
# ** Info: HTRANS is Valid
#    Time: 55 ns Started: 55 ns  Scope: AhbMasterAssertionTb.ahbmasterassertions_u File: /fetools/work_area/frontend/prakhyath/ahb_avip_loc/src//hdlTop/masterAgentBFM/AhbMasterAssertion.sv Line: 47
# ** Error: Address changed before HREADY HIGH!
#    Time: 55 ns Started: 45 ns  Scope: AhbMasterAssertionTb.ahbmasterassertions_u File: /fetools/work_area/frontend/prakhyath/ahb_avip_loc/src//hdlTop/masterAgentBFM/AhbMasterAssertion.sv Line: 162 Expr: hready==0
# ** Info: HWDATA is Valid When HWRITE IS HIGH
#    Time: 55 ns Started: 45 ns  Scope: AhbMasterAssertionTb.ahbmasterassertions_u File: /fetools/work_area/frontend/prakhyath/ahb_avip_loc/src//hdlTop/masterAgentBFM/AhbMasterAssertion.sv Line: 38
# ** Info: HREADY remains stable during wait states
#    Time: 55 ns Started: 45 ns  Scope: AhbMasterAssertionTb.ahbmasterassertions_u File: /fetools/work_area/frontend/prakhyath/ahb_avip_loc/src//hdlTop/masterAgentBFM/AhbMasterAssertion.sv Line: 94
# ** Error: Transition from BUSY to SEQ failed: Conditions not met!
#    Time: 55 ns Started: 55 ns  Scope: AhbMasterAssertionTb.ahbmasterassertions_u File: /fetools/work_area/frontend/prakhyath/ahb_avip_loc/src//hdlTop/masterAgentBFM/AhbMasterAssertion.sv Line: 133 Expr: htrans==1
# UVM_INFO /fetools/work_area/frontend/prakhyath/ahb_avip_loc/src//hvlTop/tb/AhbMasterAssertionTb.sv(147) @ 65: reporter [AhbMasterAssertionTb] Check that HWDATA is valid when HWRITE is HIGH AssertionFail Task ended
# UVM_INFO /fetools/work_area/frontend/prakhyath/ahb_avip_loc/src//hvlTop/tb/AhbMasterAssertionTb.sv(151) @ 65: reporter [AhbMasterAssertionTb] Ensure HADDR is aligned based on HSIZE AssertionPass task started
# ** Error: INCR burst type failed: Address not incremented correctly!
#    Time: 65 ns Started: 65 ns  Scope: AhbMasterAssertionTb.ahbmasterassertions_u File: /fetools/work_area/frontend/prakhyath/ahb_avip_loc/src//hdlTop/masterAgentBFM/AhbMasterAssertion.sv Line: 113 Expr: haddr==$past(haddr)+(1<<hsize)
# ** Info: HADDR is within the valid range
#    Time: 65 ns Started: 65 ns  Scope: AhbMasterAssertionTb.ahbmasterassertions_u File: /fetools/work_area/frontend/prakhyath/ahb_avip_loc/src//hdlTop/masterAgentBFM/AhbMasterAssertion.sv Line: 67
# ** Info: HRESP is OKAY during a successful transfer
#    Time: 65 ns Started: 65 ns  Scope: AhbMasterAssertionTb.ahbmasterassertions_u File: /fetools/work_area/frontend/prakhyath/ahb_avip_loc/src//hdlTop/masterAgentBFM/AhbMasterAssertion.sv Line: 76
# ** Info: HADDR is aligned based on HSIZE
#    Time: 65 ns Started: 65 ns  Scope: AhbMasterAssertionTb.ahbmasterassertions_u File: /fetools/work_area/frontend/prakhyath/ahb_avip_loc/src//hdlTop/masterAgentBFM/AhbMasterAssertion.sv Line: 57
# ** Info: HTRANS is Valid
#    Time: 65 ns Started: 65 ns  Scope: AhbMasterAssertionTb.ahbmasterassertions_u File: /fetools/work_area/frontend/prakhyath/ahb_avip_loc/src//hdlTop/masterAgentBFM/AhbMasterAssertion.sv Line: 47
# ** Error: Address changed before HREADY HIGH!
#    Time: 65 ns Started: 55 ns  Scope: AhbMasterAssertionTb.ahbmasterassertions_u File: /fetools/work_area/frontend/prakhyath/ahb_avip_loc/src//hdlTop/masterAgentBFM/AhbMasterAssertion.sv Line: 162 Expr: hready==0
# ** Error: HWDATA contains X when HWRITE is asserted!
#    Time: 65 ns Started: 55 ns  Scope: AhbMasterAssertionTb.ahbmasterassertions_u File: /fetools/work_area/frontend/prakhyath/ahb_avip_loc/src//hdlTop/masterAgentBFM/AhbMasterAssertion.sv Line: 39 Expr: ~$isunknown(hwdata)
# ** Info: HREADY remains stable during wait states
#    Time: 65 ns Started: 55 ns  Scope: AhbMasterAssertionTb.ahbmasterassertions_u File: /fetools/work_area/frontend/prakhyath/ahb_avip_loc/src//hdlTop/masterAgentBFM/AhbMasterAssertion.sv Line: 94
# ** Error: Transition from BUSY to SEQ failed: Conditions not met!
#    Time: 65 ns Started: 65 ns  Scope: AhbMasterAssertionTb.ahbmasterassertions_u File: /fetools/work_area/frontend/prakhyath/ahb_avip_loc/src//hdlTop/masterAgentBFM/AhbMasterAssertion.sv Line: 133 Expr: htrans==1
# ** Error: INCR burst type failed: Address not incremented correctly!
#    Time: 75 ns Started: 75 ns  Scope: AhbMasterAssertionTb.ahbmasterassertions_u File: /fetools/work_area/frontend/prakhyath/ahb_avip_loc/src//hdlTop/masterAgentBFM/AhbMasterAssertion.sv Line: 113 Expr: haddr==$past(haddr)+(1<<hsize)
# ** Info: HADDR is within the valid range
#    Time: 75 ns Started: 75 ns  Scope: AhbMasterAssertionTb.ahbmasterassertions_u File: /fetools/work_area/frontend/prakhyath/ahb_avip_loc/src//hdlTop/masterAgentBFM/AhbMasterAssertion.sv Line: 67
# ** Info: HRESP is OKAY during a successful transfer
#    Time: 75 ns Started: 75 ns  Scope: AhbMasterAssertionTb.ahbmasterassertions_u File: /fetools/work_area/frontend/prakhyath/ahb_avip_loc/src//hdlTop/masterAgentBFM/AhbMasterAssertion.sv Line: 76
# ** Info: HADDR is aligned based on HSIZE
#    Time: 75 ns Started: 75 ns  Scope: AhbMasterAssertionTb.ahbmasterassertions_u File: /fetools/work_area/frontend/prakhyath/ahb_avip_loc/src//hdlTop/masterAgentBFM/AhbMasterAssertion.sv Line: 57
# ** Info: HTRANS is Valid
#    Time: 75 ns Started: 75 ns  Scope: AhbMasterAssertionTb.ahbmasterassertions_u File: /fetools/work_area/frontend/prakhyath/ahb_avip_loc/src//hdlTop/masterAgentBFM/AhbMasterAssertion.sv Line: 47
# ** Error: Address changed before HREADY HIGH!
#    Time: 75 ns Started: 65 ns  Scope: AhbMasterAssertionTb.ahbmasterassertions_u File: /fetools/work_area/frontend/prakhyath/ahb_avip_loc/src//hdlTop/masterAgentBFM/AhbMasterAssertion.sv Line: 162 Expr: hready==0
# ** Error: HWDATA contains X when HWRITE is asserted!
#    Time: 75 ns Started: 65 ns  Scope: AhbMasterAssertionTb.ahbmasterassertions_u File: /fetools/work_area/frontend/prakhyath/ahb_avip_loc/src//hdlTop/masterAgentBFM/AhbMasterAssertion.sv Line: 39 Expr: ~$isunknown(hwdata)
# ** Info: HREADY remains stable during wait states
#    Time: 75 ns Started: 65 ns  Scope: AhbMasterAssertionTb.ahbmasterassertions_u File: /fetools/work_area/frontend/prakhyath/ahb_avip_loc/src//hdlTop/masterAgentBFM/AhbMasterAssertion.sv Line: 94
# ** Error: Transition from BUSY to SEQ failed: Conditions not met!
#    Time: 75 ns Started: 75 ns  Scope: AhbMasterAssertionTb.ahbmasterassertions_u File: /fetools/work_area/frontend/prakhyath/ahb_avip_loc/src//hdlTop/masterAgentBFM/AhbMasterAssertion.sv Line: 133 Expr: htrans==1
# UVM_INFO /fetools/work_area/frontend/prakhyath/ahb_avip_loc/src//hvlTop/tb/AhbMasterAssertionTb.sv(160) @ 85: reporter [AhbMasterAssertionTb] Ensure HADDR is aligned based on HSIZE AssertionPass Task ended
# UVM_INFO /fetools/work_area/frontend/prakhyath/ahb_avip_loc/src//hvlTop/tb/AhbMasterAssertionTb.sv(164) @ 85: reporter [AhbMasterAssertionTb] Ensure HADDR is aligned based on HSIZE AssertionFail task started
# ** Error: INCR burst type failed: Address not incremented correctly!
#    Time: 85 ns Started: 85 ns  Scope: AhbMasterAssertionTb.ahbmasterassertions_u File: /fetools/work_area/frontend/prakhyath/ahb_avip_loc/src//hdlTop/masterAgentBFM/AhbMasterAssertion.sv Line: 113 Expr: haddr==$past(haddr)+(1<<hsize)
# ** Info: HADDR is within the valid range
#    Time: 85 ns Started: 85 ns  Scope: AhbMasterAssertionTb.ahbmasterassertions_u File: /fetools/work_area/frontend/prakhyath/ahb_avip_loc/src//hdlTop/masterAgentBFM/AhbMasterAssertion.sv Line: 67
# ** Info: HRESP is OKAY during a successful transfer
#    Time: 85 ns Started: 85 ns  Scope: AhbMasterAssertionTb.ahbmasterassertions_u File: /fetools/work_area/frontend/prakhyath/ahb_avip_loc/src//hdlTop/masterAgentBFM/AhbMasterAssertion.sv Line: 76
# ** Info: HADDR is aligned based on HSIZE
#    Time: 85 ns Started: 85 ns  Scope: AhbMasterAssertionTb.ahbmasterassertions_u File: /fetools/work_area/frontend/prakhyath/ahb_avip_loc/src//hdlTop/masterAgentBFM/AhbMasterAssertion.sv Line: 57
# ** Info: HTRANS is Valid
#    Time: 85 ns Started: 85 ns  Scope: AhbMasterAssertionTb.ahbmasterassertions_u File: /fetools/work_area/frontend/prakhyath/ahb_avip_loc/src//hdlTop/masterAgentBFM/AhbMasterAssertion.sv Line: 47
# ** Error: Address changed before HREADY HIGH!
#    Time: 85 ns Started: 75 ns  Scope: AhbMasterAssertionTb.ahbmasterassertions_u File: /fetools/work_area/frontend/prakhyath/ahb_avip_loc/src//hdlTop/masterAgentBFM/AhbMasterAssertion.sv Line: 162 Expr: $stable(haddr)
# ** Error: HWDATA contains X when HWRITE is asserted!
#    Time: 85 ns Started: 75 ns  Scope: AhbMasterAssertionTb.ahbmasterassertions_u File: /fetools/work_area/frontend/prakhyath/ahb_avip_loc/src//hdlTop/masterAgentBFM/AhbMasterAssertion.sv Line: 39 Expr: ~$isunknown(hwdata)
# ** Info: HREADY remains stable during wait states
#    Time: 85 ns Started: 75 ns  Scope: AhbMasterAssertionTb.ahbmasterassertions_u File: /fetools/work_area/frontend/prakhyath/ahb_avip_loc/src//hdlTop/masterAgentBFM/AhbMasterAssertion.sv Line: 94
# ** Error: Transition from BUSY to SEQ failed: Conditions not met!
#    Time: 85 ns Started: 85 ns  Scope: AhbMasterAssertionTb.ahbmasterassertions_u File: /fetools/work_area/frontend/prakhyath/ahb_avip_loc/src//hdlTop/masterAgentBFM/AhbMasterAssertion.sv Line: 133 Expr: htrans==1
# ** Error: INCR burst type failed: Address not incremented correctly!
#    Time: 95 ns Started: 95 ns  Scope: AhbMasterAssertionTb.ahbmasterassertions_u File: /fetools/work_area/frontend/prakhyath/ahb_avip_loc/src//hdlTop/masterAgentBFM/AhbMasterAssertion.sv Line: 113 Expr: haddr==$past(haddr)+(1<<hsize)
# ** Info: HADDR is within the valid range
#    Time: 95 ns Started: 95 ns  Scope: AhbMasterAssertionTb.ahbmasterassertions_u File: /fetools/work_area/frontend/prakhyath/ahb_avip_loc/src//hdlTop/masterAgentBFM/AhbMasterAssertion.sv Line: 67
# ** Info: HRESP is OKAY during a successful transfer
#    Time: 95 ns Started: 95 ns  Scope: AhbMasterAssertionTb.ahbmasterassertions_u File: /fetools/work_area/frontend/prakhyath/ahb_avip_loc/src//hdlTop/masterAgentBFM/AhbMasterAssertion.sv Line: 76
# ** Info: HADDR is aligned based on HSIZE
#    Time: 95 ns Started: 95 ns  Scope: AhbMasterAssertionTb.ahbmasterassertions_u File: /fetools/work_area/frontend/prakhyath/ahb_avip_loc/src//hdlTop/masterAgentBFM/AhbMasterAssertion.sv Line: 57
# ** Info: HTRANS is Valid
#    Time: 95 ns Started: 95 ns  Scope: AhbMasterAssertionTb.ahbmasterassertions_u File: /fetools/work_area/frontend/prakhyath/ahb_avip_loc/src//hdlTop/masterAgentBFM/AhbMasterAssertion.sv Line: 47
# ** Error: Address changed before HREADY HIGH!
#    Time: 95 ns Started: 85 ns  Scope: AhbMasterAssertionTb.ahbmasterassertions_u File: /fetools/work_area/frontend/prakhyath/ahb_avip_loc/src//hdlTop/masterAgentBFM/AhbMasterAssertion.sv Line: 162 Expr: hready==0
# ** Error: HWDATA contains X when HWRITE is asserted!
#    Time: 95 ns Started: 85 ns  Scope: AhbMasterAssertionTb.ahbmasterassertions_u File: /fetools/work_area/frontend/prakhyath/ahb_avip_loc/src//hdlTop/masterAgentBFM/AhbMasterAssertion.sv Line: 39 Expr: ~$isunknown(hwdata)
# ** Info: HREADY remains stable during wait states
#    Time: 95 ns Started: 85 ns  Scope: AhbMasterAssertionTb.ahbmasterassertions_u File: /fetools/work_area/frontend/prakhyath/ahb_avip_loc/src//hdlTop/masterAgentBFM/AhbMasterAssertion.sv Line: 94
# ** Error: Transition from BUSY to SEQ failed: Conditions not met!
#    Time: 95 ns Started: 95 ns  Scope: AhbMasterAssertionTb.ahbmasterassertions_u File: /fetools/work_area/frontend/prakhyath/ahb_avip_loc/src//hdlTop/masterAgentBFM/AhbMasterAssertion.sv Line: 133 Expr: htrans==1
# ** Info: HADDR is within the valid range
#    Time: 105 ns Started: 105 ns  Scope: AhbMasterAssertionTb.ahbmasterassertions_u File: /fetools/work_area/frontend/prakhyath/ahb_avip_loc/src//hdlTop/masterAgentBFM/AhbMasterAssertion.sv Line: 67
# ** Info: HRESP is OKAY during a successful transfer
#    Time: 105 ns Started: 105 ns  Scope: AhbMasterAssertionTb.ahbmasterassertions_u File: /fetools/work_area/frontend/prakhyath/ahb_avip_loc/src//hdlTop/masterAgentBFM/AhbMasterAssertion.sv Line: 76
# ** Error: HADDR is not aligned based on HSIZE!
#    Time: 105 ns Started: 105 ns  Scope: AhbMasterAssertionTb.ahbmasterassertions_u File: /fetools/work_area/frontend/prakhyath/ahb_avip_loc/src//hdlTop/masterAgentBFM/AhbMasterAssertion.sv Line: 58 Expr: haddr[1:0]==0
# ** Info: HTRANS is Valid
#    Time: 105 ns Started: 105 ns  Scope: AhbMasterAssertionTb.ahbmasterassertions_u File: /fetools/work_area/frontend/prakhyath/ahb_avip_loc/src//hdlTop/masterAgentBFM/AhbMasterAssertion.sv Line: 47
# ** Error: Address changed before HREADY HIGH!
#    Time: 105 ns Started: 95 ns  Scope: AhbMasterAssertionTb.ahbmasterassertions_u File: /fetools/work_area/frontend/prakhyath/ahb_avip_loc/src//hdlTop/masterAgentBFM/AhbMasterAssertion.sv Line: 162 Expr: $stable(haddr)
# ** Error: HWDATA contains X when HWRITE is asserted!
#    Time: 105 ns Started: 95 ns  Scope: AhbMasterAssertionTb.ahbmasterassertions_u File: /fetools/work_area/frontend/prakhyath/ahb_avip_loc/src//hdlTop/masterAgentBFM/AhbMasterAssertion.sv Line: 39 Expr: ~$isunknown(hwdata)
# ** Info: HREADY remains stable during wait states
#    Time: 105 ns Started: 95 ns  Scope: AhbMasterAssertionTb.ahbmasterassertions_u File: /fetools/work_area/frontend/prakhyath/ahb_avip_loc/src//hdlTop/masterAgentBFM/AhbMasterAssertion.sv Line: 94
# ** Error: Transition from BUSY to SEQ failed: Conditions not met!
#    Time: 105 ns Started: 105 ns  Scope: AhbMasterAssertionTb.ahbmasterassertions_u File: /fetools/work_area/frontend/prakhyath/ahb_avip_loc/src//hdlTop/masterAgentBFM/AhbMasterAssertion.sv Line: 133 Expr: htrans==1
# UVM_INFO /fetools/work_area/frontend/prakhyath/ahb_avip_loc/src//hvlTop/tb/AhbMasterAssertionTb.sv(173) @ 115: reporter [AhbMasterAssertionTb] Ensure HADDR is aligned based on HSIZE AssertionFail Task ended
# UVM_INFO /fetools/work_area/frontend/prakhyath/ahb_avip_loc/src//hvlTop/tb/AhbMasterAssertionTb.sv(178) @ 115: reporter [AhbMasterAssertionTb] Check if HADDR is within the valid range AssertionPass Task started
# ** Info: HADDR is within the valid range
#    Time: 115 ns Started: 115 ns  Scope: AhbMasterAssertionTb.ahbmasterassertions_u File: /fetools/work_area/frontend/prakhyath/ahb_avip_loc/src//hdlTop/masterAgentBFM/AhbMasterAssertion.sv Line: 67
# ** Info: HRESP is OKAY during a successful transfer
#    Time: 115 ns Started: 115 ns  Scope: AhbMasterAssertionTb.ahbmasterassertions_u File: /fetools/work_area/frontend/prakhyath/ahb_avip_loc/src//hdlTop/masterAgentBFM/AhbMasterAssertion.sv Line: 76
# ** Error: HADDR is not aligned based on HSIZE!
#    Time: 115 ns Started: 115 ns  Scope: AhbMasterAssertionTb.ahbmasterassertions_u File: /fetools/work_area/frontend/prakhyath/ahb_avip_loc/src//hdlTop/masterAgentBFM/AhbMasterAssertion.sv Line: 58 Expr: haddr[1:0]==0
# ** Info: HTRANS is Valid
#    Time: 115 ns Started: 115 ns  Scope: AhbMasterAssertionTb.ahbmasterassertions_u File: /fetools/work_area/frontend/prakhyath/ahb_avip_loc/src//hdlTop/masterAgentBFM/AhbMasterAssertion.sv Line: 47
# ** Error: Address changed before HREADY HIGH!
#    Time: 115 ns Started: 105 ns  Scope: AhbMasterAssertionTb.ahbmasterassertions_u File: /fetools/work_area/frontend/prakhyath/ahb_avip_loc/src//hdlTop/masterAgentBFM/AhbMasterAssertion.sv Line: 162 Expr: hready==0
# ** Info: HWDATA is Valid When HWRITE IS HIGH
#    Time: 115 ns Started: 105 ns  Scope: AhbMasterAssertionTb.ahbmasterassertions_u File: /fetools/work_area/frontend/prakhyath/ahb_avip_loc/src//hdlTop/masterAgentBFM/AhbMasterAssertion.sv Line: 38
# ** Info: HREADY remains stable during wait states
#    Time: 115 ns Started: 105 ns  Scope: AhbMasterAssertionTb.ahbmasterassertions_u File: /fetools/work_area/frontend/prakhyath/ahb_avip_loc/src//hdlTop/masterAgentBFM/AhbMasterAssertion.sv Line: 94
# ** Error: Transition from BUSY to SEQ failed: Conditions not met!
#    Time: 115 ns Started: 115 ns  Scope: AhbMasterAssertionTb.ahbmasterassertions_u File: /fetools/work_area/frontend/prakhyath/ahb_avip_loc/src//hdlTop/masterAgentBFM/AhbMasterAssertion.sv Line: 133 Expr: htrans==1
# ** Info: HADDR is within the valid range
#    Time: 125 ns Started: 125 ns  Scope: AhbMasterAssertionTb.ahbmasterassertions_u File: /fetools/work_area/frontend/prakhyath/ahb_avip_loc/src//hdlTop/masterAgentBFM/AhbMasterAssertion.sv Line: 67
# ** Info: HRESP is OKAY during a successful transfer
#    Time: 125 ns Started: 125 ns  Scope: AhbMasterAssertionTb.ahbmasterassertions_u File: /fetools/work_area/frontend/prakhyath/ahb_avip_loc/src//hdlTop/masterAgentBFM/AhbMasterAssertion.sv Line: 76
# ** Error: HADDR is not aligned based on HSIZE!
#    Time: 125 ns Started: 125 ns  Scope: AhbMasterAssertionTb.ahbmasterassertions_u File: /fetools/work_area/frontend/prakhyath/ahb_avip_loc/src//hdlTop/masterAgentBFM/AhbMasterAssertion.sv Line: 58 Expr: haddr[1:0]==0
# ** Info: HTRANS is Valid
#    Time: 125 ns Started: 125 ns  Scope: AhbMasterAssertionTb.ahbmasterassertions_u File: /fetools/work_area/frontend/prakhyath/ahb_avip_loc/src//hdlTop/masterAgentBFM/AhbMasterAssertion.sv Line: 47
# ** Error: Address changed before HREADY HIGH!
#    Time: 125 ns Started: 115 ns  Scope: AhbMasterAssertionTb.ahbmasterassertions_u File: /fetools/work_area/frontend/prakhyath/ahb_avip_loc/src//hdlTop/masterAgentBFM/AhbMasterAssertion.sv Line: 162 Expr: hready==0
# ** Info: HWDATA is Valid When HWRITE IS HIGH
#    Time: 125 ns Started: 115 ns  Scope: AhbMasterAssertionTb.ahbmasterassertions_u File: /fetools/work_area/frontend/prakhyath/ahb_avip_loc/src//hdlTop/masterAgentBFM/AhbMasterAssertion.sv Line: 38
# ** Info: HREADY remains stable during wait states
#    Time: 125 ns Started: 115 ns  Scope: AhbMasterAssertionTb.ahbmasterassertions_u File: /fetools/work_area/frontend/prakhyath/ahb_avip_loc/src//hdlTop/masterAgentBFM/AhbMasterAssertion.sv Line: 94
# ** Error: Transition from BUSY to SEQ failed: Conditions not met!
#    Time: 125 ns Started: 125 ns  Scope: AhbMasterAssertionTb.ahbmasterassertions_u File: /fetools/work_area/frontend/prakhyath/ahb_avip_loc/src//hdlTop/masterAgentBFM/AhbMasterAssertion.sv Line: 133 Expr: htrans==1
# UVM_INFO /fetools/work_area/frontend/prakhyath/ahb_avip_loc/src//hvlTop/tb/AhbMasterAssertionTb.sv(186) @ 135: reporter [AhbMasterAssertionTb] Check if HADDR is within the valid range AssertionPass Task ended
# UVM_INFO /fetools/work_area/frontend/prakhyath/ahb_avip_loc/src//hvlTop/tb/AhbMasterAssertionTb.sv(191) @ 135: reporter [AhbMasterAssertionTb] Check if HADDR is within the valid range AssertionFail Task started
# ** Error: INCR burst type failed: Address not incremented correctly!
#    Time: 135 ns Started: 135 ns  Scope: AhbMasterAssertionTb.ahbmasterassertions_u File: /fetools/work_area/frontend/prakhyath/ahb_avip_loc/src//hdlTop/masterAgentBFM/AhbMasterAssertion.sv Line: 113 Expr: haddr==$past(haddr)+(1<<hsize)
# ** Info: HADDR is within the valid range
#    Time: 135 ns Started: 135 ns  Scope: AhbMasterAssertionTb.ahbmasterassertions_u File: /fetools/work_area/frontend/prakhyath/ahb_avip_loc/src//hdlTop/masterAgentBFM/AhbMasterAssertion.sv Line: 67
# ** Info: HRESP is OKAY during a successful transfer
#    Time: 135 ns Started: 135 ns  Scope: AhbMasterAssertionTb.ahbmasterassertions_u File: /fetools/work_area/frontend/prakhyath/ahb_avip_loc/src//hdlTop/masterAgentBFM/AhbMasterAssertion.sv Line: 76
# ** Info: HADDR is aligned based on HSIZE
#    Time: 135 ns Started: 135 ns  Scope: AhbMasterAssertionTb.ahbmasterassertions_u File: /fetools/work_area/frontend/prakhyath/ahb_avip_loc/src//hdlTop/masterAgentBFM/AhbMasterAssertion.sv Line: 57
# ** Info: HTRANS is Valid
#    Time: 135 ns Started: 135 ns  Scope: AhbMasterAssertionTb.ahbmasterassertions_u File: /fetools/work_area/frontend/prakhyath/ahb_avip_loc/src//hdlTop/masterAgentBFM/AhbMasterAssertion.sv Line: 47
# ** Error: Address changed before HREADY HIGH!
#    Time: 135 ns Started: 125 ns  Scope: AhbMasterAssertionTb.ahbmasterassertions_u File: /fetools/work_area/frontend/prakhyath/ahb_avip_loc/src//hdlTop/masterAgentBFM/AhbMasterAssertion.sv Line: 162 Expr: $stable(haddr)
# ** Info: HWDATA is Valid When HWRITE IS HIGH
#    Time: 135 ns Started: 125 ns  Scope: AhbMasterAssertionTb.ahbmasterassertions_u File: /fetools/work_area/frontend/prakhyath/ahb_avip_loc/src//hdlTop/masterAgentBFM/AhbMasterAssertion.sv Line: 38
# ** Info: HREADY remains stable during wait states
#    Time: 135 ns Started: 125 ns  Scope: AhbMasterAssertionTb.ahbmasterassertions_u File: /fetools/work_area/frontend/prakhyath/ahb_avip_loc/src//hdlTop/masterAgentBFM/AhbMasterAssertion.sv Line: 94
# ** Error: Transition from BUSY to SEQ failed: Conditions not met!
#    Time: 135 ns Started: 135 ns  Scope: AhbMasterAssertionTb.ahbmasterassertions_u File: /fetools/work_area/frontend/prakhyath/ahb_avip_loc/src//hdlTop/masterAgentBFM/AhbMasterAssertion.sv Line: 133 Expr: htrans==1
# ** Error: INCR burst type failed: Address not incremented correctly!
#    Time: 145 ns Started: 145 ns  Scope: AhbMasterAssertionTb.ahbmasterassertions_u File: /fetools/work_area/frontend/prakhyath/ahb_avip_loc/src//hdlTop/masterAgentBFM/AhbMasterAssertion.sv Line: 113 Expr: haddr==$past(haddr)+(1<<hsize)
# ** Info: HADDR is within the valid range
#    Time: 145 ns Started: 145 ns  Scope: AhbMasterAssertionTb.ahbmasterassertions_u File: /fetools/work_area/frontend/prakhyath/ahb_avip_loc/src//hdlTop/masterAgentBFM/AhbMasterAssertion.sv Line: 67
# ** Info: HRESP is OKAY during a successful transfer
#    Time: 145 ns Started: 145 ns  Scope: AhbMasterAssertionTb.ahbmasterassertions_u File: /fetools/work_area/frontend/prakhyath/ahb_avip_loc/src//hdlTop/masterAgentBFM/AhbMasterAssertion.sv Line: 76
# ** Info: HADDR is aligned based on HSIZE
#    Time: 145 ns Started: 145 ns  Scope: AhbMasterAssertionTb.ahbmasterassertions_u File: /fetools/work_area/frontend/prakhyath/ahb_avip_loc/src//hdlTop/masterAgentBFM/AhbMasterAssertion.sv Line: 57
# ** Info: HTRANS is Valid
#    Time: 145 ns Started: 145 ns  Scope: AhbMasterAssertionTb.ahbmasterassertions_u File: /fetools/work_area/frontend/prakhyath/ahb_avip_loc/src//hdlTop/masterAgentBFM/AhbMasterAssertion.sv Line: 47
# ** Error: Address changed before HREADY HIGH!
#    Time: 145 ns Started: 135 ns  Scope: AhbMasterAssertionTb.ahbmasterassertions_u File: /fetools/work_area/frontend/prakhyath/ahb_avip_loc/src//hdlTop/masterAgentBFM/AhbMasterAssertion.sv Line: 162 Expr: hready==0
# ** Info: HWDATA is Valid When HWRITE IS HIGH
#    Time: 145 ns Started: 135 ns  Scope: AhbMasterAssertionTb.ahbmasterassertions_u File: /fetools/work_area/frontend/prakhyath/ahb_avip_loc/src//hdlTop/masterAgentBFM/AhbMasterAssertion.sv Line: 38
# ** Info: HREADY remains stable during wait states
#    Time: 145 ns Started: 135 ns  Scope: AhbMasterAssertionTb.ahbmasterassertions_u File: /fetools/work_area/frontend/prakhyath/ahb_avip_loc/src//hdlTop/masterAgentBFM/AhbMasterAssertion.sv Line: 94
# ** Error: Transition from BUSY to SEQ failed: Conditions not met!
#    Time: 145 ns Started: 145 ns  Scope: AhbMasterAssertionTb.ahbmasterassertions_u File: /fetools/work_area/frontend/prakhyath/ahb_avip_loc/src//hdlTop/masterAgentBFM/AhbMasterAssertion.sv Line: 133 Expr: htrans==1
# ** Info: HADDR is within the valid range
#    Time: 155 ns Started: 155 ns  Scope: AhbMasterAssertionTb.ahbmasterassertions_u File: /fetools/work_area/frontend/prakhyath/ahb_avip_loc/src//hdlTop/masterAgentBFM/AhbMasterAssertion.sv Line: 67
# ** Info: HRESP is OKAY during a successful transfer
#    Time: 155 ns Started: 155 ns  Scope: AhbMasterAssertionTb.ahbmasterassertions_u File: /fetools/work_area/frontend/prakhyath/ahb_avip_loc/src//hdlTop/masterAgentBFM/AhbMasterAssertion.sv Line: 76
# ** Error: HADDR is not aligned based on HSIZE!
#    Time: 155 ns Started: 155 ns  Scope: AhbMasterAssertionTb.ahbmasterassertions_u File: /fetools/work_area/frontend/prakhyath/ahb_avip_loc/src//hdlTop/masterAgentBFM/AhbMasterAssertion.sv Line: 58 Expr: haddr[1:0]==0
# ** Info: HTRANS is Valid
#    Time: 155 ns Started: 155 ns  Scope: AhbMasterAssertionTb.ahbmasterassertions_u File: /fetools/work_area/frontend/prakhyath/ahb_avip_loc/src//hdlTop/masterAgentBFM/AhbMasterAssertion.sv Line: 47
# ** Error: Address changed before HREADY HIGH!
#    Time: 155 ns Started: 145 ns  Scope: AhbMasterAssertionTb.ahbmasterassertions_u File: /fetools/work_area/frontend/prakhyath/ahb_avip_loc/src//hdlTop/masterAgentBFM/AhbMasterAssertion.sv Line: 162 Expr: $stable(haddr)
# ** Info: HWDATA is Valid When HWRITE IS HIGH
#    Time: 155 ns Started: 145 ns  Scope: AhbMasterAssertionTb.ahbmasterassertions_u File: /fetools/work_area/frontend/prakhyath/ahb_avip_loc/src//hdlTop/masterAgentBFM/AhbMasterAssertion.sv Line: 38
# ** Info: HREADY remains stable during wait states
#    Time: 155 ns Started: 145 ns  Scope: AhbMasterAssertionTb.ahbmasterassertions_u File: /fetools/work_area/frontend/prakhyath/ahb_avip_loc/src//hdlTop/masterAgentBFM/AhbMasterAssertion.sv Line: 94
# ** Error: Transition from BUSY to SEQ failed: Conditions not met!
#    Time: 155 ns Started: 155 ns  Scope: AhbMasterAssertionTb.ahbmasterassertions_u File: /fetools/work_area/frontend/prakhyath/ahb_avip_loc/src//hdlTop/masterAgentBFM/AhbMasterAssertion.sv Line: 133 Expr: htrans==1
# UVM_INFO /fetools/work_area/frontend/prakhyath/ahb_avip_loc/src//hvlTop/tb/AhbMasterAssertionTb.sv(201) @ 165: reporter [AhbMasterAssertionTb] Check if HADDR is within the valid range AssertionFail Task ended
# UVM_INFO /fetools/work_area/frontend/prakhyath/ahb_avip_loc/src//hvlTop/tb/AhbMasterAssertionTb.sv(205) @ 165: reporter [AhbMasterAssertionTb] Ensure HRESP is OKAY (0) during successful transfers AssertionPass Task started
# ** Info: HADDR is within the valid range
#    Time: 165 ns Started: 165 ns  Scope: AhbMasterAssertionTb.ahbmasterassertions_u File: /fetools/work_area/frontend/prakhyath/ahb_avip_loc/src//hdlTop/masterAgentBFM/AhbMasterAssertion.sv Line: 67
# ** Info: HRESP is OKAY during a successful transfer
#    Time: 165 ns Started: 165 ns  Scope: AhbMasterAssertionTb.ahbmasterassertions_u File: /fetools/work_area/frontend/prakhyath/ahb_avip_loc/src//hdlTop/masterAgentBFM/AhbMasterAssertion.sv Line: 76
# ** Error: HADDR is not aligned based on HSIZE!
#    Time: 165 ns Started: 165 ns  Scope: AhbMasterAssertionTb.ahbmasterassertions_u File: /fetools/work_area/frontend/prakhyath/ahb_avip_loc/src//hdlTop/masterAgentBFM/AhbMasterAssertion.sv Line: 58 Expr: haddr[1:0]==0
# ** Info: HTRANS is Valid
#    Time: 165 ns Started: 165 ns  Scope: AhbMasterAssertionTb.ahbmasterassertions_u File: /fetools/work_area/frontend/prakhyath/ahb_avip_loc/src//hdlTop/masterAgentBFM/AhbMasterAssertion.sv Line: 47
# ** Error: Address changed before HREADY HIGH!
#    Time: 165 ns Started: 155 ns  Scope: AhbMasterAssertionTb.ahbmasterassertions_u File: /fetools/work_area/frontend/prakhyath/ahb_avip_loc/src//hdlTop/masterAgentBFM/AhbMasterAssertion.sv Line: 162 Expr: hready==0
# ** Info: HWDATA is Valid When HWRITE IS HIGH
#    Time: 165 ns Started: 155 ns  Scope: AhbMasterAssertionTb.ahbmasterassertions_u File: /fetools/work_area/frontend/prakhyath/ahb_avip_loc/src//hdlTop/masterAgentBFM/AhbMasterAssertion.sv Line: 38
# ** Info: HREADY remains stable during wait states
#    Time: 165 ns Started: 155 ns  Scope: AhbMasterAssertionTb.ahbmasterassertions_u File: /fetools/work_area/frontend/prakhyath/ahb_avip_loc/src//hdlTop/masterAgentBFM/AhbMasterAssertion.sv Line: 94
# ** Error: Transition from BUSY to SEQ failed: Conditions not met!
#    Time: 165 ns Started: 165 ns  Scope: AhbMasterAssertionTb.ahbmasterassertions_u File: /fetools/work_area/frontend/prakhyath/ahb_avip_loc/src//hdlTop/masterAgentBFM/AhbMasterAssertion.sv Line: 133 Expr: htrans==1
# ** Info: HADDR is within the valid range
#    Time: 175 ns Started: 175 ns  Scope: AhbMasterAssertionTb.ahbmasterassertions_u File: /fetools/work_area/frontend/prakhyath/ahb_avip_loc/src//hdlTop/masterAgentBFM/AhbMasterAssertion.sv Line: 67
# ** Info: HRESP is OKAY during a successful transfer
#    Time: 175 ns Started: 175 ns  Scope: AhbMasterAssertionTb.ahbmasterassertions_u File: /fetools/work_area/frontend/prakhyath/ahb_avip_loc/src//hdlTop/masterAgentBFM/AhbMasterAssertion.sv Line: 76
# ** Error: HADDR is not aligned based on HSIZE!
#    Time: 175 ns Started: 175 ns  Scope: AhbMasterAssertionTb.ahbmasterassertions_u File: /fetools/work_area/frontend/prakhyath/ahb_avip_loc/src//hdlTop/masterAgentBFM/AhbMasterAssertion.sv Line: 58 Expr: haddr[1:0]==0
# ** Info: HTRANS is Valid
#    Time: 175 ns Started: 175 ns  Scope: AhbMasterAssertionTb.ahbmasterassertions_u File: /fetools/work_area/frontend/prakhyath/ahb_avip_loc/src//hdlTop/masterAgentBFM/AhbMasterAssertion.sv Line: 47
# ** Error: Address changed before HREADY HIGH!
#    Time: 175 ns Started: 165 ns  Scope: AhbMasterAssertionTb.ahbmasterassertions_u File: /fetools/work_area/frontend/prakhyath/ahb_avip_loc/src//hdlTop/masterAgentBFM/AhbMasterAssertion.sv Line: 162 Expr: hready==0
# ** Info: HWDATA is Valid When HWRITE IS HIGH
#    Time: 175 ns Started: 165 ns  Scope: AhbMasterAssertionTb.ahbmasterassertions_u File: /fetools/work_area/frontend/prakhyath/ahb_avip_loc/src//hdlTop/masterAgentBFM/AhbMasterAssertion.sv Line: 38
# ** Info: HREADY remains stable during wait states
#    Time: 175 ns Started: 165 ns  Scope: AhbMasterAssertionTb.ahbmasterassertions_u File: /fetools/work_area/frontend/prakhyath/ahb_avip_loc/src//hdlTop/masterAgentBFM/AhbMasterAssertion.sv Line: 94
# ** Error: Transition from BUSY to SEQ failed: Conditions not met!
#    Time: 175 ns Started: 175 ns  Scope: AhbMasterAssertionTb.ahbmasterassertions_u File: /fetools/work_area/frontend/prakhyath/ahb_avip_loc/src//hdlTop/masterAgentBFM/AhbMasterAssertion.sv Line: 133 Expr: htrans==1
# ** Error: INCR burst type failed: Address not incremented correctly!
#    Time: 185 ns Started: 185 ns  Scope: AhbMasterAssertionTb.ahbmasterassertions_u File: /fetools/work_area/frontend/prakhyath/ahb_avip_loc/src//hdlTop/masterAgentBFM/AhbMasterAssertion.sv Line: 113 Expr: haddr==$past(haddr)+(1<<hsize)
# ** Info: HADDR is within the valid range
#    Time: 185 ns Started: 185 ns  Scope: AhbMasterAssertionTb.ahbmasterassertions_u File: /fetools/work_area/frontend/prakhyath/ahb_avip_loc/src//hdlTop/masterAgentBFM/AhbMasterAssertion.sv Line: 67
# ** Info: HRESP is OKAY during a successful transfer
#    Time: 185 ns Started: 185 ns  Scope: AhbMasterAssertionTb.ahbmasterassertions_u File: /fetools/work_area/frontend/prakhyath/ahb_avip_loc/src//hdlTop/masterAgentBFM/AhbMasterAssertion.sv Line: 76
# ** Info: HADDR is aligned based on HSIZE
#    Time: 185 ns Started: 185 ns  Scope: AhbMasterAssertionTb.ahbmasterassertions_u File: /fetools/work_area/frontend/prakhyath/ahb_avip_loc/src//hdlTop/masterAgentBFM/AhbMasterAssertion.sv Line: 57
# ** Info: HTRANS is Valid
#    Time: 185 ns Started: 185 ns  Scope: AhbMasterAssertionTb.ahbmasterassertions_u File: /fetools/work_area/frontend/prakhyath/ahb_avip_loc/src//hdlTop/masterAgentBFM/AhbMasterAssertion.sv Line: 47
# ** Error: Address changed before HREADY HIGH!
#    Time: 185 ns Started: 175 ns  Scope: AhbMasterAssertionTb.ahbmasterassertions_u File: /fetools/work_area/frontend/prakhyath/ahb_avip_loc/src//hdlTop/masterAgentBFM/AhbMasterAssertion.sv Line: 162 Expr: $stable(haddr)
# ** Info: HWDATA is Valid When HWRITE IS HIGH
#    Time: 185 ns Started: 175 ns  Scope: AhbMasterAssertionTb.ahbmasterassertions_u File: /fetools/work_area/frontend/prakhyath/ahb_avip_loc/src//hdlTop/masterAgentBFM/AhbMasterAssertion.sv Line: 38
# ** Info: HREADY remains stable during wait states
#    Time: 185 ns Started: 175 ns  Scope: AhbMasterAssertionTb.ahbmasterassertions_u File: /fetools/work_area/frontend/prakhyath/ahb_avip_loc/src//hdlTop/masterAgentBFM/AhbMasterAssertion.sv Line: 94
# ** Error: Transition from BUSY to SEQ failed: Conditions not met!
#    Time: 185 ns Started: 185 ns  Scope: AhbMasterAssertionTb.ahbmasterassertions_u File: /fetools/work_area/frontend/prakhyath/ahb_avip_loc/src//hdlTop/masterAgentBFM/AhbMasterAssertion.sv Line: 133 Expr: htrans==1
# UVM_INFO /fetools/work_area/frontend/prakhyath/ahb_avip_loc/src//hvlTop/tb/AhbMasterAssertionTb.sv(215) @ 195: reporter [AhbMasterAssertionTb] Ensure HRESP is OKAY (0) during successful transfers AssertionPass Task ended
# UVM_INFO /fetools/work_area/frontend/prakhyath/ahb_avip_loc/src//hvlTop/tb/AhbMasterAssertionTb.sv(219) @ 195: reporter [AhbMasterAssertionTb] Ensure HRESP is OKAY (0) during successful transfers AssertionFail Task started
# ** Error: INCR burst type failed: Address not incremented correctly!
#    Time: 195 ns Started: 195 ns  Scope: AhbMasterAssertionTb.ahbmasterassertions_u File: /fetools/work_area/frontend/prakhyath/ahb_avip_loc/src//hdlTop/masterAgentBFM/AhbMasterAssertion.sv Line: 113 Expr: haddr==$past(haddr)+(1<<hsize)
# ** Info: HADDR is within the valid range
#    Time: 195 ns Started: 195 ns  Scope: AhbMasterAssertionTb.ahbmasterassertions_u File: /fetools/work_area/frontend/prakhyath/ahb_avip_loc/src//hdlTop/masterAgentBFM/AhbMasterAssertion.sv Line: 67
# ** Info: HRESP is OKAY during a successful transfer
#    Time: 195 ns Started: 195 ns  Scope: AhbMasterAssertionTb.ahbmasterassertions_u File: /fetools/work_area/frontend/prakhyath/ahb_avip_loc/src//hdlTop/masterAgentBFM/AhbMasterAssertion.sv Line: 76
# ** Info: HADDR is aligned based on HSIZE
#    Time: 195 ns Started: 195 ns  Scope: AhbMasterAssertionTb.ahbmasterassertions_u File: /fetools/work_area/frontend/prakhyath/ahb_avip_loc/src//hdlTop/masterAgentBFM/AhbMasterAssertion.sv Line: 57
# ** Info: HTRANS is Valid
#    Time: 195 ns Started: 195 ns  Scope: AhbMasterAssertionTb.ahbmasterassertions_u File: /fetools/work_area/frontend/prakhyath/ahb_avip_loc/src//hdlTop/masterAgentBFM/AhbMasterAssertion.sv Line: 47
# ** Error: Address changed before HREADY HIGH!
#    Time: 195 ns Started: 185 ns  Scope: AhbMasterAssertionTb.ahbmasterassertions_u File: /fetools/work_area/frontend/prakhyath/ahb_avip_loc/src//hdlTop/masterAgentBFM/AhbMasterAssertion.sv Line: 162 Expr: hready==0
# ** Info: HWDATA is Valid When HWRITE IS HIGH
#    Time: 195 ns Started: 185 ns  Scope: AhbMasterAssertionTb.ahbmasterassertions_u File: /fetools/work_area/frontend/prakhyath/ahb_avip_loc/src//hdlTop/masterAgentBFM/AhbMasterAssertion.sv Line: 38
# ** Info: HREADY remains stable during wait states
#    Time: 195 ns Started: 185 ns  Scope: AhbMasterAssertionTb.ahbmasterassertions_u File: /fetools/work_area/frontend/prakhyath/ahb_avip_loc/src//hdlTop/masterAgentBFM/AhbMasterAssertion.sv Line: 94
# ** Error: Transition from BUSY to SEQ failed: Conditions not met!
#    Time: 195 ns Started: 195 ns  Scope: AhbMasterAssertionTb.ahbmasterassertions_u File: /fetools/work_area/frontend/prakhyath/ahb_avip_loc/src//hdlTop/masterAgentBFM/AhbMasterAssertion.sv Line: 133 Expr: htrans==1
# ** Error: INCR burst type failed: Address not incremented correctly!
#    Time: 205 ns Started: 205 ns  Scope: AhbMasterAssertionTb.ahbmasterassertions_u File: /fetools/work_area/frontend/prakhyath/ahb_avip_loc/src//hdlTop/masterAgentBFM/AhbMasterAssertion.sv Line: 113 Expr: haddr==$past(haddr)+(1<<hsize)
# ** Info: HADDR is within the valid range
#    Time: 205 ns Started: 205 ns  Scope: AhbMasterAssertionTb.ahbmasterassertions_u File: /fetools/work_area/frontend/prakhyath/ahb_avip_loc/src//hdlTop/masterAgentBFM/AhbMasterAssertion.sv Line: 67
# ** Info: HRESP is OKAY during a successful transfer
#    Time: 205 ns Started: 205 ns  Scope: AhbMasterAssertionTb.ahbmasterassertions_u File: /fetools/work_area/frontend/prakhyath/ahb_avip_loc/src//hdlTop/masterAgentBFM/AhbMasterAssertion.sv Line: 76
# ** Info: HADDR is aligned based on HSIZE
#    Time: 205 ns Started: 205 ns  Scope: AhbMasterAssertionTb.ahbmasterassertions_u File: /fetools/work_area/frontend/prakhyath/ahb_avip_loc/src//hdlTop/masterAgentBFM/AhbMasterAssertion.sv Line: 57
# ** Info: HTRANS is Valid
#    Time: 205 ns Started: 205 ns  Scope: AhbMasterAssertionTb.ahbmasterassertions_u File: /fetools/work_area/frontend/prakhyath/ahb_avip_loc/src//hdlTop/masterAgentBFM/AhbMasterAssertion.sv Line: 47
# ** Error: Address changed before HREADY HIGH!
#    Time: 205 ns Started: 195 ns  Scope: AhbMasterAssertionTb.ahbmasterassertions_u File: /fetools/work_area/frontend/prakhyath/ahb_avip_loc/src//hdlTop/masterAgentBFM/AhbMasterAssertion.sv Line: 162 Expr: hready==0
# ** Info: HWDATA is Valid When HWRITE IS HIGH
#    Time: 205 ns Started: 195 ns  Scope: AhbMasterAssertionTb.ahbmasterassertions_u File: /fetools/work_area/frontend/prakhyath/ahb_avip_loc/src//hdlTop/masterAgentBFM/AhbMasterAssertion.sv Line: 38
# ** Info: HREADY remains stable during wait states
#    Time: 205 ns Started: 195 ns  Scope: AhbMasterAssertionTb.ahbmasterassertions_u File: /fetools/work_area/frontend/prakhyath/ahb_avip_loc/src//hdlTop/masterAgentBFM/AhbMasterAssertion.sv Line: 94
# ** Error: Transition from BUSY to SEQ failed: Conditions not met!
#    Time: 205 ns Started: 205 ns  Scope: AhbMasterAssertionTb.ahbmasterassertions_u File: /fetools/work_area/frontend/prakhyath/ahb_avip_loc/src//hdlTop/masterAgentBFM/AhbMasterAssertion.sv Line: 133 Expr: htrans==1
# UVM_INFO /fetools/work_area/frontend/prakhyath/ahb_avip_loc/src//hvlTop/tb/AhbMasterAssertionTb.sv(226) @ 215: reporter [AhbMasterAssertionTb] Ensure HRESP is OKAY (0) during successful transfers AssertionFail Task ended
# UVM_INFO /fetools/work_area/frontend/prakhyath/ahb_avip_loc/src//hvlTop/tb/AhbMasterAssertionTb.sv(230) @ 215: reporter [AhbMasterAssertionTb] Ensure HRESP is ERROR (1) during successful transfers AssertionPass Task started
# ** Info: HRESP is ERROR during error conditions
#    Time: 215 ns Started: 215 ns  Scope: AhbMasterAssertionTb.ahbmasterassertions_u File: /fetools/work_area/frontend/prakhyath/ahb_avip_loc/src//hdlTop/masterAgentBFM/AhbMasterAssertion.sv Line: 85
# ** Error: INCR burst type failed: Address not incremented correctly!
#    Time: 215 ns Started: 215 ns  Scope: AhbMasterAssertionTb.ahbmasterassertions_u File: /fetools/work_area/frontend/prakhyath/ahb_avip_loc/src//hdlTop/masterAgentBFM/AhbMasterAssertion.sv Line: 113 Expr: haddr==$past(haddr)+(1<<hsize)
# ** Info: HADDR is within the valid range
#    Time: 215 ns Started: 215 ns  Scope: AhbMasterAssertionTb.ahbmasterassertions_u File: /fetools/work_area/frontend/prakhyath/ahb_avip_loc/src//hdlTop/masterAgentBFM/AhbMasterAssertion.sv Line: 67
# ** Error: HRESP is not OKAY for a successful transfer!
#    Time: 215 ns Started: 215 ns  Scope: AhbMasterAssertionTb.ahbmasterassertions_u File: /fetools/work_area/frontend/prakhyath/ahb_avip_loc/src//hdlTop/masterAgentBFM/AhbMasterAssertion.sv Line: 77 Expr: ~hresp
# ** Info: HADDR is aligned based on HSIZE
#    Time: 215 ns Started: 215 ns  Scope: AhbMasterAssertionTb.ahbmasterassertions_u File: /fetools/work_area/frontend/prakhyath/ahb_avip_loc/src//hdlTop/masterAgentBFM/AhbMasterAssertion.sv Line: 57
# ** Info: HTRANS is Valid
#    Time: 215 ns Started: 215 ns  Scope: AhbMasterAssertionTb.ahbmasterassertions_u File: /fetools/work_area/frontend/prakhyath/ahb_avip_loc/src//hdlTop/masterAgentBFM/AhbMasterAssertion.sv Line: 47
# ** Error: Address changed before HREADY HIGH!
#    Time: 215 ns Started: 205 ns  Scope: AhbMasterAssertionTb.ahbmasterassertions_u File: /fetools/work_area/frontend/prakhyath/ahb_avip_loc/src//hdlTop/masterAgentBFM/AhbMasterAssertion.sv Line: 162 Expr: hready==0
# ** Info: HWDATA is Valid When HWRITE IS HIGH
#    Time: 215 ns Started: 205 ns  Scope: AhbMasterAssertionTb.ahbmasterassertions_u File: /fetools/work_area/frontend/prakhyath/ahb_avip_loc/src//hdlTop/masterAgentBFM/AhbMasterAssertion.sv Line: 38
# ** Info: HREADY remains stable during wait states
#    Time: 215 ns Started: 205 ns  Scope: AhbMasterAssertionTb.ahbmasterassertions_u File: /fetools/work_area/frontend/prakhyath/ahb_avip_loc/src//hdlTop/masterAgentBFM/AhbMasterAssertion.sv Line: 94
# ** Error: Transition from BUSY to SEQ failed: Conditions not met!
#    Time: 215 ns Started: 215 ns  Scope: AhbMasterAssertionTb.ahbmasterassertions_u File: /fetools/work_area/frontend/prakhyath/ahb_avip_loc/src//hdlTop/masterAgentBFM/AhbMasterAssertion.sv Line: 133 Expr: htrans==1
# ** Info: HRESP is ERROR during error conditions
#    Time: 225 ns Started: 225 ns  Scope: AhbMasterAssertionTb.ahbmasterassertions_u File: /fetools/work_area/frontend/prakhyath/ahb_avip_loc/src//hdlTop/masterAgentBFM/AhbMasterAssertion.sv Line: 85
# ** Error: INCR burst type failed: Address not incremented correctly!
#    Time: 225 ns Started: 225 ns  Scope: AhbMasterAssertionTb.ahbmasterassertions_u File: /fetools/work_area/frontend/prakhyath/ahb_avip_loc/src//hdlTop/masterAgentBFM/AhbMasterAssertion.sv Line: 113 Expr: haddr==$past(haddr)+(1<<hsize)
# ** Info: HADDR is within the valid range
#    Time: 225 ns Started: 225 ns  Scope: AhbMasterAssertionTb.ahbmasterassertions_u File: /fetools/work_area/frontend/prakhyath/ahb_avip_loc/src//hdlTop/masterAgentBFM/AhbMasterAssertion.sv Line: 67
# ** Error: HRESP is not OKAY for a successful transfer!
#    Time: 225 ns Started: 225 ns  Scope: AhbMasterAssertionTb.ahbmasterassertions_u File: /fetools/work_area/frontend/prakhyath/ahb_avip_loc/src//hdlTop/masterAgentBFM/AhbMasterAssertion.sv Line: 77 Expr: ~hresp
# ** Info: HADDR is aligned based on HSIZE
#    Time: 225 ns Started: 225 ns  Scope: AhbMasterAssertionTb.ahbmasterassertions_u File: /fetools/work_area/frontend/prakhyath/ahb_avip_loc/src//hdlTop/masterAgentBFM/AhbMasterAssertion.sv Line: 57
# ** Info: HTRANS is Valid
#    Time: 225 ns Started: 225 ns  Scope: AhbMasterAssertionTb.ahbmasterassertions_u File: /fetools/work_area/frontend/prakhyath/ahb_avip_loc/src//hdlTop/masterAgentBFM/AhbMasterAssertion.sv Line: 47
# ** Error: Address changed before HREADY HIGH!
#    Time: 225 ns Started: 215 ns  Scope: AhbMasterAssertionTb.ahbmasterassertions_u File: /fetools/work_area/frontend/prakhyath/ahb_avip_loc/src//hdlTop/masterAgentBFM/AhbMasterAssertion.sv Line: 162 Expr: hready==0
# ** Info: HWDATA is Valid When HWRITE IS HIGH
#    Time: 225 ns Started: 215 ns  Scope: AhbMasterAssertionTb.ahbmasterassertions_u File: /fetools/work_area/frontend/prakhyath/ahb_avip_loc/src//hdlTop/masterAgentBFM/AhbMasterAssertion.sv Line: 38
# ** Info: HREADY remains stable during wait states
#    Time: 225 ns Started: 215 ns  Scope: AhbMasterAssertionTb.ahbmasterassertions_u File: /fetools/work_area/frontend/prakhyath/ahb_avip_loc/src//hdlTop/masterAgentBFM/AhbMasterAssertion.sv Line: 94
# ** Error: Transition from BUSY to SEQ failed: Conditions not met!
#    Time: 225 ns Started: 225 ns  Scope: AhbMasterAssertionTb.ahbmasterassertions_u File: /fetools/work_area/frontend/prakhyath/ahb_avip_loc/src//hdlTop/masterAgentBFM/AhbMasterAssertion.sv Line: 133 Expr: htrans==1
# UVM_INFO /fetools/work_area/frontend/prakhyath/ahb_avip_loc/src//hvlTop/tb/AhbMasterAssertionTb.sv(237) @ 235: reporter [AhbMasterAssertionTb] Ensure HRESP is ERROR (1) during successful transfers AssertionPass Task ended
# UVM_INFO /fetools/work_area/frontend/prakhyath/ahb_avip_loc/src//hvlTop/tb/AhbMasterAssertionTb.sv(241) @ 235: reporter [AhbMasterAssertionTb] Check for INCR (incrementing burst) AssertionPass Task started
# ** Error: Address changed before HREADY HIGH!
#    Time: 235 ns Started: 225 ns  Scope: AhbMasterAssertionTb.ahbmasterassertions_u File: /fetools/work_area/frontend/prakhyath/ahb_avip_loc/src//hdlTop/masterAgentBFM/AhbMasterAssertion.sv Line: 162 Expr: hready==0
# ** Error: Unexpected HRESP ERROR when transfer is IDLE!
#    Time: 235 ns Started: 235 ns  Scope: AhbMasterAssertionTb.ahbmasterassertions_u File: /fetools/work_area/frontend/prakhyath/ahb_avip_loc/src//hdlTop/masterAgentBFM/AhbMasterAssertion.sv Line: 86 Expr: htrans!=0
# ** Info: HWDATA is Valid When HWRITE IS HIGH
#    Time: 235 ns Started: 225 ns  Scope: AhbMasterAssertionTb.ahbmasterassertions_u File: /fetools/work_area/frontend/prakhyath/ahb_avip_loc/src//hdlTop/masterAgentBFM/AhbMasterAssertion.sv Line: 38
# ** Info: HREADY remains stable during wait states
#    Time: 235 ns Started: 225 ns  Scope: AhbMasterAssertionTb.ahbmasterassertions_u File: /fetools/work_area/frontend/prakhyath/ahb_avip_loc/src//hdlTop/masterAgentBFM/AhbMasterAssertion.sv Line: 94
# ** Error: Transition from BUSY to SEQ failed: Conditions not met!
#    Time: 235 ns Started: 235 ns  Scope: AhbMasterAssertionTb.ahbmasterassertions_u File: /fetools/work_area/frontend/prakhyath/ahb_avip_loc/src//hdlTop/masterAgentBFM/AhbMasterAssertion.sv Line: 133 Expr: htrans==1
# ** Error: Unexpected HRESP ERROR when transfer is IDLE!
#    Time: 245 ns Started: 245 ns  Scope: AhbMasterAssertionTb.ahbmasterassertions_u File: /fetools/work_area/frontend/prakhyath/ahb_avip_loc/src//hdlTop/masterAgentBFM/AhbMasterAssertion.sv Line: 86 Expr: htrans!=0
# ** Info: HREADY remains stable during wait states
#    Time: 245 ns Started: 235 ns  Scope: AhbMasterAssertionTb.ahbmasterassertions_u File: /fetools/work_area/frontend/prakhyath/ahb_avip_loc/src//hdlTop/masterAgentBFM/AhbMasterAssertion.sv Line: 94
# ** Error: Transition from BUSY to SEQ failed: Conditions not met!
#    Time: 245 ns Started: 245 ns  Scope: AhbMasterAssertionTb.ahbmasterassertions_u File: /fetools/work_area/frontend/prakhyath/ahb_avip_loc/src//hdlTop/masterAgentBFM/AhbMasterAssertion.sv Line: 133 Expr: htrans==1
# UVM_INFO /fetools/work_area/frontend/prakhyath/ahb_avip_loc/src//hvlTop/tb/AhbMasterAssertionTb.sv(250) @ 255: reporter [AhbMasterAssertionTb] Check for INCR (incrementing burst) AssertionPass Task ended
# UVM_INFO /fetools/work_area/frontend/prakhyath/ahb_avip_loc/src//hvlTop/tb/AhbMasterAssertionTb.sv(254) @ 255: reporter [AhbMasterAssertionTb] Check for INCR (incrementing burst) AssertionFail Task started
# ** Error: HRESP is not OKAY for a successful transfer!
#    Time: 255 ns Started: 255 ns  Scope: AhbMasterAssertionTb.ahbmasterassertions_u File: /fetools/work_area/frontend/prakhyath/ahb_avip_loc/src//hdlTop/masterAgentBFM/AhbMasterAssertion.sv Line: 77 Expr: ~hresp
# ** Info: HADDR is within the valid range
#    Time: 255 ns Started: 255 ns  Scope: AhbMasterAssertionTb.ahbmasterassertions_u File: /fetools/work_area/frontend/prakhyath/ahb_avip_loc/src//hdlTop/masterAgentBFM/AhbMasterAssertion.sv Line: 67
# ** Error: INCR burst type failed: Address not incremented correctly!
#    Time: 255 ns Started: 255 ns  Scope: AhbMasterAssertionTb.ahbmasterassertions_u File: /fetools/work_area/frontend/prakhyath/ahb_avip_loc/src//hdlTop/masterAgentBFM/AhbMasterAssertion.sv Line: 113 Expr: haddr==$past(haddr)+(1<<hsize)
# ** Info: HADDR is aligned based on HSIZE
#    Time: 255 ns Started: 255 ns  Scope: AhbMasterAssertionTb.ahbmasterassertions_u File: /fetools/work_area/frontend/prakhyath/ahb_avip_loc/src//hdlTop/masterAgentBFM/AhbMasterAssertion.sv Line: 57
# ** Info: HTRANS is Valid
#    Time: 255 ns Started: 255 ns  Scope: AhbMasterAssertionTb.ahbmasterassertions_u File: /fetools/work_area/frontend/prakhyath/ahb_avip_loc/src//hdlTop/masterAgentBFM/AhbMasterAssertion.sv Line: 47
# ** Info: HRESP is ERROR during error conditions
#    Time: 255 ns Started: 255 ns  Scope: AhbMasterAssertionTb.ahbmasterassertions_u File: /fetools/work_area/frontend/prakhyath/ahb_avip_loc/src//hdlTop/masterAgentBFM/AhbMasterAssertion.sv Line: 85
# ** Info: HREADY remains stable during wait states
#    Time: 255 ns Started: 245 ns  Scope: AhbMasterAssertionTb.ahbmasterassertions_u File: /fetools/work_area/frontend/prakhyath/ahb_avip_loc/src//hdlTop/masterAgentBFM/AhbMasterAssertion.sv Line: 94
# ** Error: Transition from BUSY to SEQ failed: Conditions not met!
#    Time: 255 ns Started: 255 ns  Scope: AhbMasterAssertionTb.ahbmasterassertions_u File: /fetools/work_area/frontend/prakhyath/ahb_avip_loc/src//hdlTop/masterAgentBFM/AhbMasterAssertion.sv Line: 133 Expr: htrans==1
# ** Error: HRESP is not OKAY for a successful transfer!
#    Time: 265 ns Started: 265 ns  Scope: AhbMasterAssertionTb.ahbmasterassertions_u File: /fetools/work_area/frontend/prakhyath/ahb_avip_loc/src//hdlTop/masterAgentBFM/AhbMasterAssertion.sv Line: 77 Expr: ~hresp
# ** Info: HADDR is within the valid range
#    Time: 265 ns Started: 265 ns  Scope: AhbMasterAssertionTb.ahbmasterassertions_u File: /fetools/work_area/frontend/prakhyath/ahb_avip_loc/src//hdlTop/masterAgentBFM/AhbMasterAssertion.sv Line: 67
# ** Error: INCR burst type failed: Address not incremented correctly!
#    Time: 265 ns Started: 265 ns  Scope: AhbMasterAssertionTb.ahbmasterassertions_u File: /fetools/work_area/frontend/prakhyath/ahb_avip_loc/src//hdlTop/masterAgentBFM/AhbMasterAssertion.sv Line: 113 Expr: haddr==$past(haddr)+(1<<hsize)
# ** Info: HADDR is aligned based on HSIZE
#    Time: 265 ns Started: 265 ns  Scope: AhbMasterAssertionTb.ahbmasterassertions_u File: /fetools/work_area/frontend/prakhyath/ahb_avip_loc/src//hdlTop/masterAgentBFM/AhbMasterAssertion.sv Line: 57
# ** Info: HTRANS is Valid
#    Time: 265 ns Started: 265 ns  Scope: AhbMasterAssertionTb.ahbmasterassertions_u File: /fetools/work_area/frontend/prakhyath/ahb_avip_loc/src//hdlTop/masterAgentBFM/AhbMasterAssertion.sv Line: 47
# ** Info: HWDATA is Valid When HWRITE IS HIGH
#    Time: 265 ns Started: 255 ns  Scope: AhbMasterAssertionTb.ahbmasterassertions_u File: /fetools/work_area/frontend/prakhyath/ahb_avip_loc/src//hdlTop/masterAgentBFM/AhbMasterAssertion.sv Line: 38
# ** Error: Address changed before HREADY HIGH!
#    Time: 265 ns Started: 255 ns  Scope: AhbMasterAssertionTb.ahbmasterassertions_u File: /fetools/work_area/frontend/prakhyath/ahb_avip_loc/src//hdlTop/masterAgentBFM/AhbMasterAssertion.sv Line: 162 Expr: hready==0
# ** Info: HRESP is ERROR during error conditions
#    Time: 265 ns Started: 265 ns  Scope: AhbMasterAssertionTb.ahbmasterassertions_u File: /fetools/work_area/frontend/prakhyath/ahb_avip_loc/src//hdlTop/masterAgentBFM/AhbMasterAssertion.sv Line: 85
# ** Info: HREADY remains stable during wait states
#    Time: 265 ns Started: 255 ns  Scope: AhbMasterAssertionTb.ahbmasterassertions_u File: /fetools/work_area/frontend/prakhyath/ahb_avip_loc/src//hdlTop/masterAgentBFM/AhbMasterAssertion.sv Line: 94
# ** Error: Transition from BUSY to SEQ failed: Conditions not met!
#    Time: 265 ns Started: 265 ns  Scope: AhbMasterAssertionTb.ahbmasterassertions_u File: /fetools/work_area/frontend/prakhyath/ahb_avip_loc/src//hdlTop/masterAgentBFM/AhbMasterAssertion.sv Line: 133 Expr: htrans==1
# UVM_INFO /fetools/work_area/frontend/prakhyath/ahb_avip_loc/src//hvlTop/tb/AhbMasterAssertionTb.sv(263) @ 275: reporter [AhbMasterAssertionTb] Check for INCR (incrementing burst) AssertionFail Task ended
# UVM_INFO /fetools/work_area/frontend/prakhyath/ahb_avip_loc/src//hvlTop/tb/AhbMasterAssertionTb.sv(267) @ 275: reporter [AhbMasterAssertionTb] Ensure HREADY remains stable during wait states Assertion Pass Task started
# ** Error: HRESP is not OKAY for a successful transfer!
#    Time: 275 ns Started: 275 ns  Scope: AhbMasterAssertionTb.ahbmasterassertions_u File: /fetools/work_area/frontend/prakhyath/ahb_avip_loc/src//hdlTop/masterAgentBFM/AhbMasterAssertion.sv Line: 77 Expr: ~hresp
# ** Info: HADDR is within the valid range
#    Time: 275 ns Started: 275 ns  Scope: AhbMasterAssertionTb.ahbmasterassertions_u File: /fetools/work_area/frontend/prakhyath/ahb_avip_loc/src//hdlTop/masterAgentBFM/AhbMasterAssertion.sv Line: 67
# ** Error: INCR burst type failed: Address not incremented correctly!
#    Time: 275 ns Started: 275 ns  Scope: AhbMasterAssertionTb.ahbmasterassertions_u File: /fetools/work_area/frontend/prakhyath/ahb_avip_loc/src//hdlTop/masterAgentBFM/AhbMasterAssertion.sv Line: 113 Expr: haddr==$past(haddr)+(1<<hsize)
# ** Error: HADDR is not aligned based on HSIZE!
#    Time: 275 ns Started: 275 ns  Scope: AhbMasterAssertionTb.ahbmasterassertions_u File: /fetools/work_area/frontend/prakhyath/ahb_avip_loc/src//hdlTop/masterAgentBFM/AhbMasterAssertion.sv Line: 58 Expr: hsize==2
# ** Info: HTRANS is Valid
#    Time: 275 ns Started: 275 ns  Scope: AhbMasterAssertionTb.ahbmasterassertions_u File: /fetools/work_area/frontend/prakhyath/ahb_avip_loc/src//hdlTop/masterAgentBFM/AhbMasterAssertion.sv Line: 47
# ** Info: HWDATA is Valid When HWRITE IS HIGH
#    Time: 275 ns Started: 265 ns  Scope: AhbMasterAssertionTb.ahbmasterassertions_u File: /fetools/work_area/frontend/prakhyath/ahb_avip_loc/src//hdlTop/masterAgentBFM/AhbMasterAssertion.sv Line: 38
# ** Error: Address changed before HREADY HIGH!
#    Time: 275 ns Started: 265 ns  Scope: AhbMasterAssertionTb.ahbmasterassertions_u File: /fetools/work_area/frontend/prakhyath/ahb_avip_loc/src//hdlTop/masterAgentBFM/AhbMasterAssertion.sv Line: 162 Expr: $stable(haddr)
# ** Info: HRESP is ERROR during error conditions
#    Time: 275 ns Started: 275 ns  Scope: AhbMasterAssertionTb.ahbmasterassertions_u File: /fetools/work_area/frontend/prakhyath/ahb_avip_loc/src//hdlTop/masterAgentBFM/AhbMasterAssertion.sv Line: 85
# ** Info: HREADY remains stable during wait states
#    Time: 275 ns Started: 265 ns  Scope: AhbMasterAssertionTb.ahbmasterassertions_u File: /fetools/work_area/frontend/prakhyath/ahb_avip_loc/src//hdlTop/masterAgentBFM/AhbMasterAssertion.sv Line: 94
# ** Error: Transition from BUSY to SEQ failed: Conditions not met!
#    Time: 275 ns Started: 275 ns  Scope: AhbMasterAssertionTb.ahbmasterassertions_u File: /fetools/work_area/frontend/prakhyath/ahb_avip_loc/src//hdlTop/masterAgentBFM/AhbMasterAssertion.sv Line: 133 Expr: htrans==1
# ** Error: HRESP is not OKAY for a successful transfer!
#    Time: 285 ns Started: 285 ns  Scope: AhbMasterAssertionTb.ahbmasterassertions_u File: /fetools/work_area/frontend/prakhyath/ahb_avip_loc/src//hdlTop/masterAgentBFM/AhbMasterAssertion.sv Line: 77 Expr: ~hresp
# ** Info: HADDR is within the valid range
#    Time: 285 ns Started: 285 ns  Scope: AhbMasterAssertionTb.ahbmasterassertions_u File: /fetools/work_area/frontend/prakhyath/ahb_avip_loc/src//hdlTop/masterAgentBFM/AhbMasterAssertion.sv Line: 67
# ** Error: INCR burst type failed: Address not incremented correctly!
#    Time: 285 ns Started: 285 ns  Scope: AhbMasterAssertionTb.ahbmasterassertions_u File: /fetools/work_area/frontend/prakhyath/ahb_avip_loc/src//hdlTop/masterAgentBFM/AhbMasterAssertion.sv Line: 113 Expr: haddr==$past(haddr)+(1<<hsize)
# ** Error: HADDR is not aligned based on HSIZE!
#    Time: 285 ns Started: 285 ns  Scope: AhbMasterAssertionTb.ahbmasterassertions_u File: /fetools/work_area/frontend/prakhyath/ahb_avip_loc/src//hdlTop/masterAgentBFM/AhbMasterAssertion.sv Line: 58 Expr: hsize==2
# ** Info: HTRANS is Valid
#    Time: 285 ns Started: 285 ns  Scope: AhbMasterAssertionTb.ahbmasterassertions_u File: /fetools/work_area/frontend/prakhyath/ahb_avip_loc/src//hdlTop/masterAgentBFM/AhbMasterAssertion.sv Line: 47
# ** Info: HWDATA is Valid When HWRITE IS HIGH
#    Time: 285 ns Started: 275 ns  Scope: AhbMasterAssertionTb.ahbmasterassertions_u File: /fetools/work_area/frontend/prakhyath/ahb_avip_loc/src//hdlTop/masterAgentBFM/AhbMasterAssertion.sv Line: 38
# ** Error: Address changed before HREADY HIGH!
#    Time: 285 ns Started: 275 ns  Scope: AhbMasterAssertionTb.ahbmasterassertions_u File: /fetools/work_area/frontend/prakhyath/ahb_avip_loc/src//hdlTop/masterAgentBFM/AhbMasterAssertion.sv Line: 162 Expr: hready==0
# ** Info: HRESP is ERROR during error conditions
#    Time: 285 ns Started: 285 ns  Scope: AhbMasterAssertionTb.ahbmasterassertions_u File: /fetools/work_area/frontend/prakhyath/ahb_avip_loc/src//hdlTop/masterAgentBFM/AhbMasterAssertion.sv Line: 85
# ** Info: HREADY remains stable during wait states
#    Time: 285 ns Started: 275 ns  Scope: AhbMasterAssertionTb.ahbmasterassertions_u File: /fetools/work_area/frontend/prakhyath/ahb_avip_loc/src//hdlTop/masterAgentBFM/AhbMasterAssertion.sv Line: 94
# ** Error: Transition from BUSY to SEQ failed: Conditions not met!
#    Time: 285 ns Started: 285 ns  Scope: AhbMasterAssertionTb.ahbmasterassertions_u File: /fetools/work_area/frontend/prakhyath/ahb_avip_loc/src//hdlTop/masterAgentBFM/AhbMasterAssertion.sv Line: 133 Expr: htrans==1
# ** Info: HWDATA is Valid When HWRITE IS HIGH
#    Time: 295 ns Started: 285 ns  Scope: AhbMasterAssertionTb.ahbmasterassertions_u File: /fetools/work_area/frontend/prakhyath/ahb_avip_loc/src//hdlTop/masterAgentBFM/AhbMasterAssertion.sv Line: 38
# ** Info: Address stability during waited transfer verified.
#    Time: 295 ns Started: 285 ns  Scope: AhbMasterAssertionTb.ahbmasterassertions_u File: /fetools/work_area/frontend/prakhyath/ahb_avip_loc/src//hdlTop/masterAgentBFM/AhbMasterAssertion.sv Line: 161
# ** Error: HTRANS has an invalid value or transition!
#    Time: 295 ns Started: 295 ns  Scope: AhbMasterAssertionTb.ahbmasterassertions_u File: /fetools/work_area/frontend/prakhyath/ahb_avip_loc/src//hdlTop/masterAgentBFM/AhbMasterAssertion.sv Line: 48 Expr: hready
# ** Error: INCR burst type failed: Address not incremented correctly!
#    Time: 295 ns Started: 295 ns  Scope: AhbMasterAssertionTb.ahbmasterassertions_u File: /fetools/work_area/frontend/prakhyath/ahb_avip_loc/src//hdlTop/masterAgentBFM/AhbMasterAssertion.sv Line: 113 Expr: haddr==$past(haddr)+(1<<hsize)
# ** Error: HREADY unexpectedly changed when slave was not ready!
#    Time: 295 ns Started: 285 ns  Scope: AhbMasterAssertionTb.ahbmasterassertions_u File: /fetools/work_area/frontend/prakhyath/ahb_avip_loc/src//hdlTop/masterAgentBFM/AhbMasterAssertion.sv Line: 95 Expr: hready
# ** Error: Transition from BUSY to SEQ failed: Conditions not met!
#    Time: 295 ns Started: 295 ns  Scope: AhbMasterAssertionTb.ahbmasterassertions_u File: /fetools/work_area/frontend/prakhyath/ahb_avip_loc/src//hdlTop/masterAgentBFM/AhbMasterAssertion.sv Line: 133 Expr: htrans==1
# UVM_INFO /fetools/work_area/frontend/prakhyath/ahb_avip_loc/src//hvlTop/tb/AhbMasterAssertionTb.sv(273) @ 305: reporter [AhbMasterAssertionTb] Ensure HREADY remains stable during wait states Assertion Pass Task ended
# UVM_INFO /fetools/work_area/frontend/prakhyath/ahb_avip_loc/src//hvlTop/tb/AhbMasterAssertionTb.sv(277) @ 305: reporter [AhbMasterAssertionTb] Ensure HREADY remains stable during wait states Assertion Fail Task started
# ** Error: HRESP is not OKAY for a successful transfer!
#    Time: 305 ns Started: 305 ns  Scope: AhbMasterAssertionTb.ahbmasterassertions_u File: /fetools/work_area/frontend/prakhyath/ahb_avip_loc/src//hdlTop/masterAgentBFM/AhbMasterAssertion.sv Line: 77 Expr: ~hresp
# ** Info: HRESP is ERROR during error conditions
#    Time: 305 ns Started: 305 ns  Scope: AhbMasterAssertionTb.ahbmasterassertions_u File: /fetools/work_area/frontend/prakhyath/ahb_avip_loc/src//hdlTop/masterAgentBFM/AhbMasterAssertion.sv Line: 85
# ** Info: HADDR is within the valid range
#    Time: 305 ns Started: 305 ns  Scope: AhbMasterAssertionTb.ahbmasterassertions_u File: /fetools/work_area/frontend/prakhyath/ahb_avip_loc/src//hdlTop/masterAgentBFM/AhbMasterAssertion.sv Line: 67
# ** Error: HADDR is not aligned based on HSIZE!
#    Time: 305 ns Started: 305 ns  Scope: AhbMasterAssertionTb.ahbmasterassertions_u File: /fetools/work_area/frontend/prakhyath/ahb_avip_loc/src//hdlTop/masterAgentBFM/AhbMasterAssertion.sv Line: 58 Expr: hsize==2
# ** Error: Address changed before HREADY HIGH!
#    Time: 305 ns Started: 295 ns  Scope: AhbMasterAssertionTb.ahbmasterassertions_u File: /fetools/work_area/frontend/prakhyath/ahb_avip_loc/src//hdlTop/masterAgentBFM/AhbMasterAssertion.sv Line: 162 Expr: hready==0
# ** Info: HTRANS is Valid
#    Time: 305 ns Started: 305 ns  Scope: AhbMasterAssertionTb.ahbmasterassertions_u File: /fetools/work_area/frontend/prakhyath/ahb_avip_loc/src//hdlTop/masterAgentBFM/AhbMasterAssertion.sv Line: 47
# ** Error: INCR burst type failed: Address not incremented correctly!
#    Time: 305 ns Started: 305 ns  Scope: AhbMasterAssertionTb.ahbmasterassertions_u File: /fetools/work_area/frontend/prakhyath/ahb_avip_loc/src//hdlTop/masterAgentBFM/AhbMasterAssertion.sv Line: 113 Expr: haddr==$past(haddr)+(1<<hsize)
# ** Error: Transition from BUSY to SEQ failed: Conditions not met!
#    Time: 305 ns Started: 305 ns  Scope: AhbMasterAssertionTb.ahbmasterassertions_u File: /fetools/work_area/frontend/prakhyath/ahb_avip_loc/src//hdlTop/masterAgentBFM/AhbMasterAssertion.sv Line: 133 Expr: htrans==1
# ** Error: HRESP is not OKAY for a successful transfer!
#    Time: 315 ns Started: 315 ns  Scope: AhbMasterAssertionTb.ahbmasterassertions_u File: /fetools/work_area/frontend/prakhyath/ahb_avip_loc/src//hdlTop/masterAgentBFM/AhbMasterAssertion.sv Line: 77 Expr: ~hresp
# ** Info: HRESP is ERROR during error conditions
#    Time: 315 ns Started: 315 ns  Scope: AhbMasterAssertionTb.ahbmasterassertions_u File: /fetools/work_area/frontend/prakhyath/ahb_avip_loc/src//hdlTop/masterAgentBFM/AhbMasterAssertion.sv Line: 85
# ** Info: HREADY remains stable during wait states
#    Time: 315 ns Started: 305 ns  Scope: AhbMasterAssertionTb.ahbmasterassertions_u File: /fetools/work_area/frontend/prakhyath/ahb_avip_loc/src//hdlTop/masterAgentBFM/AhbMasterAssertion.sv Line: 94
# ** Info: HADDR is within the valid range
#    Time: 315 ns Started: 315 ns  Scope: AhbMasterAssertionTb.ahbmasterassertions_u File: /fetools/work_area/frontend/prakhyath/ahb_avip_loc/src//hdlTop/masterAgentBFM/AhbMasterAssertion.sv Line: 67
# ** Error: HADDR is not aligned based on HSIZE!
#    Time: 315 ns Started: 315 ns  Scope: AhbMasterAssertionTb.ahbmasterassertions_u File: /fetools/work_area/frontend/prakhyath/ahb_avip_loc/src//hdlTop/masterAgentBFM/AhbMasterAssertion.sv Line: 58 Expr: hsize==2
# ** Info: HWDATA is Valid When HWRITE IS HIGH
#    Time: 315 ns Started: 305 ns  Scope: AhbMasterAssertionTb.ahbmasterassertions_u File: /fetools/work_area/frontend/prakhyath/ahb_avip_loc/src//hdlTop/masterAgentBFM/AhbMasterAssertion.sv Line: 38
# ** Error: Address changed before HREADY HIGH!
#    Time: 315 ns Started: 305 ns  Scope: AhbMasterAssertionTb.ahbmasterassertions_u File: /fetools/work_area/frontend/prakhyath/ahb_avip_loc/src//hdlTop/masterAgentBFM/AhbMasterAssertion.sv Line: 162 Expr: hready==0
# ** Info: HTRANS is Valid
#    Time: 315 ns Started: 315 ns  Scope: AhbMasterAssertionTb.ahbmasterassertions_u File: /fetools/work_area/frontend/prakhyath/ahb_avip_loc/src//hdlTop/masterAgentBFM/AhbMasterAssertion.sv Line: 47
# ** Error: INCR burst type failed: Address not incremented correctly!
#    Time: 315 ns Started: 315 ns  Scope: AhbMasterAssertionTb.ahbmasterassertions_u File: /fetools/work_area/frontend/prakhyath/ahb_avip_loc/src//hdlTop/masterAgentBFM/AhbMasterAssertion.sv Line: 113 Expr: haddr==$past(haddr)+(1<<hsize)
# ** Error: Transition from BUSY to SEQ failed: Conditions not met!
#    Time: 315 ns Started: 315 ns  Scope: AhbMasterAssertionTb.ahbmasterassertions_u File: /fetools/work_area/frontend/prakhyath/ahb_avip_loc/src//hdlTop/masterAgentBFM/AhbMasterAssertion.sv Line: 133 Expr: htrans==1
# ** Error: HREADY unexpectedly changed when slave was not ready!
#    Time: 325 ns Started: 315 ns  Scope: AhbMasterAssertionTb.ahbmasterassertions_u File: /fetools/work_area/frontend/prakhyath/ahb_avip_loc/src//hdlTop/masterAgentBFM/AhbMasterAssertion.sv Line: 95 Expr: hready
# ** Info: HWDATA is Valid When HWRITE IS HIGH
#    Time: 325 ns Started: 315 ns  Scope: AhbMasterAssertionTb.ahbmasterassertions_u File: /fetools/work_area/frontend/prakhyath/ahb_avip_loc/src//hdlTop/masterAgentBFM/AhbMasterAssertion.sv Line: 38
# ** Info: Address stability during waited transfer verified.
#    Time: 325 ns Started: 315 ns  Scope: AhbMasterAssertionTb.ahbmasterassertions_u File: /fetools/work_area/frontend/prakhyath/ahb_avip_loc/src//hdlTop/masterAgentBFM/AhbMasterAssertion.sv Line: 161
# ** Error: HTRANS has an invalid value or transition!
#    Time: 325 ns Started: 325 ns  Scope: AhbMasterAssertionTb.ahbmasterassertions_u File: /fetools/work_area/frontend/prakhyath/ahb_avip_loc/src//hdlTop/masterAgentBFM/AhbMasterAssertion.sv Line: 48 Expr: hready
# ** Error: INCR burst type failed: Address not incremented correctly!
#    Time: 325 ns Started: 325 ns  Scope: AhbMasterAssertionTb.ahbmasterassertions_u File: /fetools/work_area/frontend/prakhyath/ahb_avip_loc/src//hdlTop/masterAgentBFM/AhbMasterAssertion.sv Line: 113 Expr: haddr==$past(haddr)+(1<<hsize)
# ** Error: Transition from BUSY to SEQ failed: Conditions not met!
#    Time: 325 ns Started: 325 ns  Scope: AhbMasterAssertionTb.ahbmasterassertions_u File: /fetools/work_area/frontend/prakhyath/ahb_avip_loc/src//hdlTop/masterAgentBFM/AhbMasterAssertion.sv Line: 133 Expr: htrans==1
# UVM_INFO /fetools/work_area/frontend/prakhyath/ahb_avip_loc/src//hvlTop/tb/AhbMasterAssertionTb.sv(283) @ 335: reporter [AhbMasterAssertionTb] Ensure HREADY remains stable during wait states Assertion Fail Task ended
# UVM_INFO /fetools/work_area/frontend/prakhyath/ahb_avip_loc/src//hvlTop/tb/AhbMasterAssertionTb.sv(287) @ 335: reporter [AhbMasterAssertionTb]  Ensure HMASTLOCK is asserted correctly during locked transfers Assertion Pass Task started
# ** Info: Address stability during waited transfer verified.
#    Time: 335 ns Started: 325 ns  Scope: AhbMasterAssertionTb.ahbmasterassertions_u File: /fetools/work_area/frontend/prakhyath/ahb_avip_loc/src//hdlTop/masterAgentBFM/AhbMasterAssertion.sv Line: 161
# ** Error: HTRANS has an invalid value or transition!
#    Time: 335 ns Started: 335 ns  Scope: AhbMasterAssertionTb.ahbmasterassertions_u File: /fetools/work_area/frontend/prakhyath/ahb_avip_loc/src//hdlTop/masterAgentBFM/AhbMasterAssertion.sv Line: 48 Expr: hready
# ** Error: INCR burst type failed: Address not incremented correctly!
#    Time: 335 ns Started: 335 ns  Scope: AhbMasterAssertionTb.ahbmasterassertions_u File: /fetools/work_area/frontend/prakhyath/ahb_avip_loc/src//hdlTop/masterAgentBFM/AhbMasterAssertion.sv Line: 113 Expr: haddr==$past(haddr)+(1<<hsize)
# ** Error: Transition from BUSY to SEQ failed: Conditions not met!
#    Time: 335 ns Started: 335 ns  Scope: AhbMasterAssertionTb.ahbmasterassertions_u File: /fetools/work_area/frontend/prakhyath/ahb_avip_loc/src//hdlTop/masterAgentBFM/AhbMasterAssertion.sv Line: 133 Expr: htrans==1
# ** Info: Address stability during waited transfer verified.
#    Time: 345 ns Started: 335 ns  Scope: AhbMasterAssertionTb.ahbmasterassertions_u File: /fetools/work_area/frontend/prakhyath/ahb_avip_loc/src//hdlTop/masterAgentBFM/AhbMasterAssertion.sv Line: 161
# ** Error: HTRANS has an invalid value or transition!
#    Time: 345 ns Started: 345 ns  Scope: AhbMasterAssertionTb.ahbmasterassertions_u File: /fetools/work_area/frontend/prakhyath/ahb_avip_loc/src//hdlTop/masterAgentBFM/AhbMasterAssertion.sv Line: 48 Expr: hready
# ** Error: INCR burst type failed: Address not incremented correctly!
#    Time: 345 ns Started: 345 ns  Scope: AhbMasterAssertionTb.ahbmasterassertions_u File: /fetools/work_area/frontend/prakhyath/ahb_avip_loc/src//hdlTop/masterAgentBFM/AhbMasterAssertion.sv Line: 113 Expr: haddr==$past(haddr)+(1<<hsize)
# ** Error: Transition from BUSY to SEQ failed: Conditions not met!
#    Time: 345 ns Started: 345 ns  Scope: AhbMasterAssertionTb.ahbmasterassertions_u File: /fetools/work_area/frontend/prakhyath/ahb_avip_loc/src//hdlTop/masterAgentBFM/AhbMasterAssertion.sv Line: 133 Expr: htrans==1
# UVM_INFO /fetools/work_area/frontend/prakhyath/ahb_avip_loc/src//hvlTop/tb/AhbMasterAssertionTb.sv(295) @ 355: reporter [AhbMasterAssertionTb]  Ensure HMASTLOCK is asserted correctly during locked transfers Assertion Pass Task ended
# UVM_INFO /fetools/work_area/frontend/prakhyath/ahb_avip_loc/src//hvlTop/tb/AhbMasterAssertionTb.sv(299) @ 355: reporter [AhbMasterAssertionTb]  Ensure HMASTLOCK is asserted correctly during locked transfers Assertion Fail Task started
# ** Info: HADDR is within the valid range
#    Time: 355 ns Started: 355 ns  Scope: AhbMasterAssertionTb.ahbmasterassertions_u File: /fetools/work_area/frontend/prakhyath/ahb_avip_loc/src//hdlTop/masterAgentBFM/AhbMasterAssertion.sv Line: 67
# ** Error: HRESP is not OKAY for a successful transfer!
#    Time: 355 ns Started: 355 ns  Scope: AhbMasterAssertionTb.ahbmasterassertions_u File: /fetools/work_area/frontend/prakhyath/ahb_avip_loc/src//hdlTop/masterAgentBFM/AhbMasterAssertion.sv Line: 77 Expr: ~hresp
# ** Info: HRESP is ERROR during error conditions
#    Time: 355 ns Started: 355 ns  Scope: AhbMasterAssertionTb.ahbmasterassertions_u File: /fetools/work_area/frontend/prakhyath/ahb_avip_loc/src//hdlTop/masterAgentBFM/AhbMasterAssertion.sv Line: 85
# ** Info: HMASTLOCK is asserted during a locked transfer
#    Time: 355 ns Started: 355 ns  Scope: AhbMasterAssertionTb.ahbmasterassertions_u File: /fetools/work_area/frontend/prakhyath/ahb_avip_loc/src//hdlTop/masterAgentBFM/AhbMasterAssertion.sv Line: 103
# ** Info: HADDR is aligned based on HSIZE
#    Time: 355 ns Started: 355 ns  Scope: AhbMasterAssertionTb.ahbmasterassertions_u File: /fetools/work_area/frontend/prakhyath/ahb_avip_loc/src//hdlTop/masterAgentBFM/AhbMasterAssertion.sv Line: 57
# ** Error: Address changed before HREADY HIGH!
#    Time: 355 ns Started: 345 ns  Scope: AhbMasterAssertionTb.ahbmasterassertions_u File: /fetools/work_area/frontend/prakhyath/ahb_avip_loc/src//hdlTop/masterAgentBFM/AhbMasterAssertion.sv Line: 162 Expr: $stable(haddr)
# ** Info: HTRANS is Valid
#    Time: 355 ns Started: 355 ns  Scope: AhbMasterAssertionTb.ahbmasterassertions_u File: /fetools/work_area/frontend/prakhyath/ahb_avip_loc/src//hdlTop/masterAgentBFM/AhbMasterAssertion.sv Line: 47
# ** Error: INCR burst type failed: Address not incremented correctly!
#    Time: 355 ns Started: 355 ns  Scope: AhbMasterAssertionTb.ahbmasterassertions_u File: /fetools/work_area/frontend/prakhyath/ahb_avip_loc/src//hdlTop/masterAgentBFM/AhbMasterAssertion.sv Line: 113 Expr: haddr==$past(haddr)+(1<<hsize)
# ** Error: Transition from BUSY to SEQ failed: Conditions not met!
#    Time: 355 ns Started: 355 ns  Scope: AhbMasterAssertionTb.ahbmasterassertions_u File: /fetools/work_area/frontend/prakhyath/ahb_avip_loc/src//hdlTop/masterAgentBFM/AhbMasterAssertion.sv Line: 133 Expr: htrans==1
# ** Info: HADDR is within the valid range
#    Time: 365 ns Started: 365 ns  Scope: AhbMasterAssertionTb.ahbmasterassertions_u File: /fetools/work_area/frontend/prakhyath/ahb_avip_loc/src//hdlTop/masterAgentBFM/AhbMasterAssertion.sv Line: 67
# ** Error: HRESP is not OKAY for a successful transfer!
#    Time: 365 ns Started: 365 ns  Scope: AhbMasterAssertionTb.ahbmasterassertions_u File: /fetools/work_area/frontend/prakhyath/ahb_avip_loc/src//hdlTop/masterAgentBFM/AhbMasterAssertion.sv Line: 77 Expr: ~hresp
# ** Info: HRESP is ERROR during error conditions
#    Time: 365 ns Started: 365 ns  Scope: AhbMasterAssertionTb.ahbmasterassertions_u File: /fetools/work_area/frontend/prakhyath/ahb_avip_loc/src//hdlTop/masterAgentBFM/AhbMasterAssertion.sv Line: 85
# ** Info: HREADY remains stable during wait states
#    Time: 365 ns Started: 355 ns  Scope: AhbMasterAssertionTb.ahbmasterassertions_u File: /fetools/work_area/frontend/prakhyath/ahb_avip_loc/src//hdlTop/masterAgentBFM/AhbMasterAssertion.sv Line: 94
# ** Info: HMASTLOCK is asserted during a locked transfer
#    Time: 365 ns Started: 365 ns  Scope: AhbMasterAssertionTb.ahbmasterassertions_u File: /fetools/work_area/frontend/prakhyath/ahb_avip_loc/src//hdlTop/masterAgentBFM/AhbMasterAssertion.sv Line: 103
# ** Info: HADDR is aligned based on HSIZE
#    Time: 365 ns Started: 365 ns  Scope: AhbMasterAssertionTb.ahbmasterassertions_u File: /fetools/work_area/frontend/prakhyath/ahb_avip_loc/src//hdlTop/masterAgentBFM/AhbMasterAssertion.sv Line: 57
# ** Info: HWDATA is Valid When HWRITE IS HIGH
#    Time: 365 ns Started: 355 ns  Scope: AhbMasterAssertionTb.ahbmasterassertions_u File: /fetools/work_area/frontend/prakhyath/ahb_avip_loc/src//hdlTop/masterAgentBFM/AhbMasterAssertion.sv Line: 38
# ** Error: Address changed before HREADY HIGH!
#    Time: 365 ns Started: 355 ns  Scope: AhbMasterAssertionTb.ahbmasterassertions_u File: /fetools/work_area/frontend/prakhyath/ahb_avip_loc/src//hdlTop/masterAgentBFM/AhbMasterAssertion.sv Line: 162 Expr: hready==0
# ** Info: HTRANS is Valid
#    Time: 365 ns Started: 365 ns  Scope: AhbMasterAssertionTb.ahbmasterassertions_u File: /fetools/work_area/frontend/prakhyath/ahb_avip_loc/src//hdlTop/masterAgentBFM/AhbMasterAssertion.sv Line: 47
# ** Error: INCR burst type failed: Address not incremented correctly!
#    Time: 365 ns Started: 365 ns  Scope: AhbMasterAssertionTb.ahbmasterassertions_u File: /fetools/work_area/frontend/prakhyath/ahb_avip_loc/src//hdlTop/masterAgentBFM/AhbMasterAssertion.sv Line: 113 Expr: haddr==$past(haddr)+(1<<hsize)
# ** Error: Transition from BUSY to SEQ failed: Conditions not met!
#    Time: 365 ns Started: 365 ns  Scope: AhbMasterAssertionTb.ahbmasterassertions_u File: /fetools/work_area/frontend/prakhyath/ahb_avip_loc/src//hdlTop/masterAgentBFM/AhbMasterAssertion.sv Line: 133 Expr: htrans==1
# ** Error: HRESP is not OKAY for a successful transfer!
#    Time: 375 ns Started: 375 ns  Scope: AhbMasterAssertionTb.ahbmasterassertions_u File: /fetools/work_area/frontend/prakhyath/ahb_avip_loc/src//hdlTop/masterAgentBFM/AhbMasterAssertion.sv Line: 77 Expr: ~hresp
# ** Info: HRESP is ERROR during error conditions
#    Time: 375 ns Started: 375 ns  Scope: AhbMasterAssertionTb.ahbmasterassertions_u File: /fetools/work_area/frontend/prakhyath/ahb_avip_loc/src//hdlTop/masterAgentBFM/AhbMasterAssertion.sv Line: 85
# ** Info: HREADY remains stable during wait states
#    Time: 375 ns Started: 365 ns  Scope: AhbMasterAssertionTb.ahbmasterassertions_u File: /fetools/work_area/frontend/prakhyath/ahb_avip_loc/src//hdlTop/masterAgentBFM/AhbMasterAssertion.sv Line: 94
# ** Info: HADDR is within the valid range
#    Time: 375 ns Started: 375 ns  Scope: AhbMasterAssertionTb.ahbmasterassertions_u File: /fetools/work_area/frontend/prakhyath/ahb_avip_loc/src//hdlTop/masterAgentBFM/AhbMasterAssertion.sv Line: 67
# ** Info: HADDR is aligned based on HSIZE
#    Time: 375 ns Started: 375 ns  Scope: AhbMasterAssertionTb.ahbmasterassertions_u File: /fetools/work_area/frontend/prakhyath/ahb_avip_loc/src//hdlTop/masterAgentBFM/AhbMasterAssertion.sv Line: 57
# ** Info: HWDATA is Valid When HWRITE IS HIGH
#    Time: 375 ns Started: 365 ns  Scope: AhbMasterAssertionTb.ahbmasterassertions_u File: /fetools/work_area/frontend/prakhyath/ahb_avip_loc/src//hdlTop/masterAgentBFM/AhbMasterAssertion.sv Line: 38
# ** Error: Address changed before HREADY HIGH!
#    Time: 375 ns Started: 365 ns  Scope: AhbMasterAssertionTb.ahbmasterassertions_u File: /fetools/work_area/frontend/prakhyath/ahb_avip_loc/src//hdlTop/masterAgentBFM/AhbMasterAssertion.sv Line: 162 Expr: hready==0
# ** Info: HTRANS is Valid
#    Time: 375 ns Started: 375 ns  Scope: AhbMasterAssertionTb.ahbmasterassertions_u File: /fetools/work_area/frontend/prakhyath/ahb_avip_loc/src//hdlTop/masterAgentBFM/AhbMasterAssertion.sv Line: 47
# ** Error: INCR burst type failed: Address not incremented correctly!
#    Time: 375 ns Started: 375 ns  Scope: AhbMasterAssertionTb.ahbmasterassertions_u File: /fetools/work_area/frontend/prakhyath/ahb_avip_loc/src//hdlTop/masterAgentBFM/AhbMasterAssertion.sv Line: 113 Expr: haddr==$past(haddr)+(1<<hsize)
# ** Error: Transition from BUSY to SEQ failed: Conditions not met!
#    Time: 375 ns Started: 375 ns  Scope: AhbMasterAssertionTb.ahbmasterassertions_u File: /fetools/work_area/frontend/prakhyath/ahb_avip_loc/src//hdlTop/masterAgentBFM/AhbMasterAssertion.sv Line: 133 Expr: htrans==1
# UVM_INFO /fetools/work_area/frontend/prakhyath/ahb_avip_loc/src//hvlTop/tb/AhbMasterAssertionTb.sv(309) @ 385: reporter [AhbMasterAssertionTb]  Ensure HMASTLOCK is asserted correctly during locked transfers Assertion Fail Task ended
# UVM_INFO /fetools/work_area/frontend/prakhyath/ahb_avip_loc/src//hvlTop/tb/AhbMasterAssertionTb.sv(313) @ 385: reporter [AhbMasterAssertionTb] Check for WRAP (wrapping burst) AssertionPass Task started
# ** Error: HRESP is not OKAY for a successful transfer!
#    Time: 385 ns Started: 385 ns  Scope: AhbMasterAssertionTb.ahbmasterassertions_u File: /fetools/work_area/frontend/prakhyath/ahb_avip_loc/src//hdlTop/masterAgentBFM/AhbMasterAssertion.sv Line: 77 Expr: ~hresp
# ** Info: HRESP is ERROR during error conditions
#    Time: 385 ns Started: 385 ns  Scope: AhbMasterAssertionTb.ahbmasterassertions_u File: /fetools/work_area/frontend/prakhyath/ahb_avip_loc/src//hdlTop/masterAgentBFM/AhbMasterAssertion.sv Line: 85
# ** Info: HREADY remains stable during wait states
#    Time: 385 ns Started: 375 ns  Scope: AhbMasterAssertionTb.ahbmasterassertions_u File: /fetools/work_area/frontend/prakhyath/ahb_avip_loc/src//hdlTop/masterAgentBFM/AhbMasterAssertion.sv Line: 94
# ** Info: HADDR is within the valid range
#    Time: 385 ns Started: 385 ns  Scope: AhbMasterAssertionTb.ahbmasterassertions_u File: /fetools/work_area/frontend/prakhyath/ahb_avip_loc/src//hdlTop/masterAgentBFM/AhbMasterAssertion.sv Line: 67
# ** Info: HADDR is aligned based on HSIZE
#    Time: 385 ns Started: 385 ns  Scope: AhbMasterAssertionTb.ahbmasterassertions_u File: /fetools/work_area/frontend/prakhyath/ahb_avip_loc/src//hdlTop/masterAgentBFM/AhbMasterAssertion.sv Line: 57
# ** Info: HWDATA is Valid When HWRITE IS HIGH
#    Time: 385 ns Started: 375 ns  Scope: AhbMasterAssertionTb.ahbmasterassertions_u File: /fetools/work_area/frontend/prakhyath/ahb_avip_loc/src//hdlTop/masterAgentBFM/AhbMasterAssertion.sv Line: 38
# ** Error: Address changed before HREADY HIGH!
#    Time: 385 ns Started: 375 ns  Scope: AhbMasterAssertionTb.ahbmasterassertions_u File: /fetools/work_area/frontend/prakhyath/ahb_avip_loc/src//hdlTop/masterAgentBFM/AhbMasterAssertion.sv Line: 162 Expr: hready==0
# ** Info: HTRANS is Valid
#    Time: 385 ns Started: 385 ns  Scope: AhbMasterAssertionTb.ahbmasterassertions_u File: /fetools/work_area/frontend/prakhyath/ahb_avip_loc/src//hdlTop/masterAgentBFM/AhbMasterAssertion.sv Line: 47
# ** Error: INCR burst type failed: Address not incremented correctly!
#    Time: 385 ns Started: 385 ns  Scope: AhbMasterAssertionTb.ahbmasterassertions_u File: /fetools/work_area/frontend/prakhyath/ahb_avip_loc/src//hdlTop/masterAgentBFM/AhbMasterAssertion.sv Line: 113 Expr: haddr==$past(haddr)+(1<<hsize)
# ** Error: Transition from BUSY to SEQ failed: Conditions not met!
#    Time: 385 ns Started: 385 ns  Scope: AhbMasterAssertionTb.ahbmasterassertions_u File: /fetools/work_area/frontend/prakhyath/ahb_avip_loc/src//hdlTop/masterAgentBFM/AhbMasterAssertion.sv Line: 133 Expr: htrans==1
# ** Error: HRESP is not OKAY for a successful transfer!
#    Time: 395 ns Started: 395 ns  Scope: AhbMasterAssertionTb.ahbmasterassertions_u File: /fetools/work_area/frontend/prakhyath/ahb_avip_loc/src//hdlTop/masterAgentBFM/AhbMasterAssertion.sv Line: 77 Expr: ~hresp
# ** Info: HRESP is ERROR during error conditions
#    Time: 395 ns Started: 395 ns  Scope: AhbMasterAssertionTb.ahbmasterassertions_u File: /fetools/work_area/frontend/prakhyath/ahb_avip_loc/src//hdlTop/masterAgentBFM/AhbMasterAssertion.sv Line: 85
# ** Info: HREADY remains stable during wait states
#    Time: 395 ns Started: 385 ns  Scope: AhbMasterAssertionTb.ahbmasterassertions_u File: /fetools/work_area/frontend/prakhyath/ahb_avip_loc/src//hdlTop/masterAgentBFM/AhbMasterAssertion.sv Line: 94
# ** Info: HADDR is within the valid range
#    Time: 395 ns Started: 395 ns  Scope: AhbMasterAssertionTb.ahbmasterassertions_u File: /fetools/work_area/frontend/prakhyath/ahb_avip_loc/src//hdlTop/masterAgentBFM/AhbMasterAssertion.sv Line: 67
# ** Info: HADDR is aligned based on HSIZE
#    Time: 395 ns Started: 395 ns  Scope: AhbMasterAssertionTb.ahbmasterassertions_u File: /fetools/work_area/frontend/prakhyath/ahb_avip_loc/src//hdlTop/masterAgentBFM/AhbMasterAssertion.sv Line: 57
# ** Info: HWDATA is Valid When HWRITE IS HIGH
#    Time: 395 ns Started: 385 ns  Scope: AhbMasterAssertionTb.ahbmasterassertions_u File: /fetools/work_area/frontend/prakhyath/ahb_avip_loc/src//hdlTop/masterAgentBFM/AhbMasterAssertion.sv Line: 38
# ** Error: Address changed before HREADY HIGH!
#    Time: 395 ns Started: 385 ns  Scope: AhbMasterAssertionTb.ahbmasterassertions_u File: /fetools/work_area/frontend/prakhyath/ahb_avip_loc/src//hdlTop/masterAgentBFM/AhbMasterAssertion.sv Line: 162 Expr: hready==0
# ** Info: HTRANS is Valid
#    Time: 395 ns Started: 395 ns  Scope: AhbMasterAssertionTb.ahbmasterassertions_u File: /fetools/work_area/frontend/prakhyath/ahb_avip_loc/src//hdlTop/masterAgentBFM/AhbMasterAssertion.sv Line: 47
# ** Error: INCR burst type failed: Address not incremented correctly!
#    Time: 395 ns Started: 395 ns  Scope: AhbMasterAssertionTb.ahbmasterassertions_u File: /fetools/work_area/frontend/prakhyath/ahb_avip_loc/src//hdlTop/masterAgentBFM/AhbMasterAssertion.sv Line: 113 Expr: haddr==$past(haddr)+(1<<hsize)
# ** Error: Transition from BUSY to SEQ failed: Conditions not met!
#    Time: 395 ns Started: 395 ns  Scope: AhbMasterAssertionTb.ahbmasterassertions_u File: /fetools/work_area/frontend/prakhyath/ahb_avip_loc/src//hdlTop/masterAgentBFM/AhbMasterAssertion.sv Line: 133 Expr: htrans==1
# UVM_INFO /fetools/work_area/frontend/prakhyath/ahb_avip_loc/src//hvlTop/tb/AhbMasterAssertionTb.sv(322) @ 405: reporter [AhbMasterAssertionTb] Check for WRAP (wrapping burst) AssertionPass Task ended
# UVM_INFO /fetools/work_area/frontend/prakhyath/ahb_avip_loc/src//hvlTop/tb/AhbMasterAssertionTb.sv(326) @ 405: reporter [AhbMasterAssertionTb] Check for WRAP (wrapping burst) AssertionFail Task started
# ** Error: HRESP is not OKAY for a successful transfer!
#    Time: 405 ns Started: 405 ns  Scope: AhbMasterAssertionTb.ahbmasterassertions_u File: /fetools/work_area/frontend/prakhyath/ahb_avip_loc/src//hdlTop/masterAgentBFM/AhbMasterAssertion.sv Line: 77 Expr: ~hresp
# ** Info: HRESP is ERROR during error conditions
#    Time: 405 ns Started: 405 ns  Scope: AhbMasterAssertionTb.ahbmasterassertions_u File: /fetools/work_area/frontend/prakhyath/ahb_avip_loc/src//hdlTop/masterAgentBFM/AhbMasterAssertion.sv Line: 85
# ** Info: HREADY remains stable during wait states
#    Time: 405 ns Started: 395 ns  Scope: AhbMasterAssertionTb.ahbmasterassertions_u File: /fetools/work_area/frontend/prakhyath/ahb_avip_loc/src//hdlTop/masterAgentBFM/AhbMasterAssertion.sv Line: 94
# ** Info: HADDR is within the valid range
#    Time: 405 ns Started: 405 ns  Scope: AhbMasterAssertionTb.ahbmasterassertions_u File: /fetools/work_area/frontend/prakhyath/ahb_avip_loc/src//hdlTop/masterAgentBFM/AhbMasterAssertion.sv Line: 67
# ** Info: HADDR is aligned based on HSIZE
#    Time: 405 ns Started: 405 ns  Scope: AhbMasterAssertionTb.ahbmasterassertions_u File: /fetools/work_area/frontend/prakhyath/ahb_avip_loc/src//hdlTop/masterAgentBFM/AhbMasterAssertion.sv Line: 57
# ** Info: HWDATA is Valid When HWRITE IS HIGH
#    Time: 405 ns Started: 395 ns  Scope: AhbMasterAssertionTb.ahbmasterassertions_u File: /fetools/work_area/frontend/prakhyath/ahb_avip_loc/src//hdlTop/masterAgentBFM/AhbMasterAssertion.sv Line: 38
# ** Error: Address changed before HREADY HIGH!
#    Time: 405 ns Started: 395 ns  Scope: AhbMasterAssertionTb.ahbmasterassertions_u File: /fetools/work_area/frontend/prakhyath/ahb_avip_loc/src//hdlTop/masterAgentBFM/AhbMasterAssertion.sv Line: 162 Expr: hready==0
# ** Info: HTRANS is Valid
#    Time: 405 ns Started: 405 ns  Scope: AhbMasterAssertionTb.ahbmasterassertions_u File: /fetools/work_area/frontend/prakhyath/ahb_avip_loc/src//hdlTop/masterAgentBFM/AhbMasterAssertion.sv Line: 47
# ** Info: WRAP burst type passed: Address wrapping is done correctly
#    Time: 405 ns Started: 405 ns  Scope: AhbMasterAssertionTb.ahbmasterassertions_u File: /fetools/work_area/frontend/prakhyath/ahb_avip_loc/src//hdlTop/masterAgentBFM/AhbMasterAssertion.sv Line: 122
# ** Error: Transition from BUSY to SEQ failed: Conditions not met!
#    Time: 405 ns Started: 405 ns  Scope: AhbMasterAssertionTb.ahbmasterassertions_u File: /fetools/work_area/frontend/prakhyath/ahb_avip_loc/src//hdlTop/masterAgentBFM/AhbMasterAssertion.sv Line: 133 Expr: htrans==1
# ** Error: HRESP is not OKAY for a successful transfer!
#    Time: 415 ns Started: 415 ns  Scope: AhbMasterAssertionTb.ahbmasterassertions_u File: /fetools/work_area/frontend/prakhyath/ahb_avip_loc/src//hdlTop/masterAgentBFM/AhbMasterAssertion.sv Line: 77 Expr: ~hresp
# ** Info: HRESP is ERROR during error conditions
#    Time: 415 ns Started: 415 ns  Scope: AhbMasterAssertionTb.ahbmasterassertions_u File: /fetools/work_area/frontend/prakhyath/ahb_avip_loc/src//hdlTop/masterAgentBFM/AhbMasterAssertion.sv Line: 85
# ** Info: HREADY remains stable during wait states
#    Time: 415 ns Started: 405 ns  Scope: AhbMasterAssertionTb.ahbmasterassertions_u File: /fetools/work_area/frontend/prakhyath/ahb_avip_loc/src//hdlTop/masterAgentBFM/AhbMasterAssertion.sv Line: 94
# ** Info: HADDR is within the valid range
#    Time: 415 ns Started: 415 ns  Scope: AhbMasterAssertionTb.ahbmasterassertions_u File: /fetools/work_area/frontend/prakhyath/ahb_avip_loc/src//hdlTop/masterAgentBFM/AhbMasterAssertion.sv Line: 67
# ** Info: HADDR is aligned based on HSIZE
#    Time: 415 ns Started: 415 ns  Scope: AhbMasterAssertionTb.ahbmasterassertions_u File: /fetools/work_area/frontend/prakhyath/ahb_avip_loc/src//hdlTop/masterAgentBFM/AhbMasterAssertion.sv Line: 57
# ** Info: HWDATA is Valid When HWRITE IS HIGH
#    Time: 415 ns Started: 405 ns  Scope: AhbMasterAssertionTb.ahbmasterassertions_u File: /fetools/work_area/frontend/prakhyath/ahb_avip_loc/src//hdlTop/masterAgentBFM/AhbMasterAssertion.sv Line: 38
# ** Error: Address changed before HREADY HIGH!
#    Time: 415 ns Started: 405 ns  Scope: AhbMasterAssertionTb.ahbmasterassertions_u File: /fetools/work_area/frontend/prakhyath/ahb_avip_loc/src//hdlTop/masterAgentBFM/AhbMasterAssertion.sv Line: 162 Expr: hready==0
# ** Info: HTRANS is Valid
#    Time: 415 ns Started: 415 ns  Scope: AhbMasterAssertionTb.ahbmasterassertions_u File: /fetools/work_area/frontend/prakhyath/ahb_avip_loc/src//hdlTop/masterAgentBFM/AhbMasterAssertion.sv Line: 47
# ** Info: WRAP burst type passed: Address wrapping is done correctly
#    Time: 415 ns Started: 415 ns  Scope: AhbMasterAssertionTb.ahbmasterassertions_u File: /fetools/work_area/frontend/prakhyath/ahb_avip_loc/src//hdlTop/masterAgentBFM/AhbMasterAssertion.sv Line: 122
# ** Error: Transition from BUSY to SEQ failed: Conditions not met!
#    Time: 415 ns Started: 415 ns  Scope: AhbMasterAssertionTb.ahbmasterassertions_u File: /fetools/work_area/frontend/prakhyath/ahb_avip_loc/src//hdlTop/masterAgentBFM/AhbMasterAssertion.sv Line: 133 Expr: htrans==1
# UVM_INFO /fetools/work_area/frontend/prakhyath/ahb_avip_loc/src//hvlTop/tb/AhbMasterAssertionTb.sv(335) @ 425: reporter [AhbMasterAssertionTb] Check for WRAP (wrapping burst) AssertionPass Task ended
