# vsim -vopt work.AhbMasterAssertionTb -voptargs="+acc=npr" -assertdebug "+UVM_TESTNAME=AhbMasterAssertionTb" "+UVM_VERBOSITY=UVM_MEDIUM" -l AhbMasterAssertionTb/AhbMasterAssertionTb.log -sva -coverage -c -do "log -r /*; add wave -r /*; coverage save -onexit -assert -directive -cvg -codeAll AhbMasterAssertionTb/AhbMasterAssertionTb_coverage.ucdb; run -all; exit" -wlf AhbMasterAssertionTb/waveform.wlf 
# Start time: 12:49:15 on Feb 06,2025
# ** Note: (vsim-3812) Design is being optimized...
# //  Questa Sim
# //  Version 10.6c linux Jul 25 2017
# //
# //  Copyright 1991-2017 Mentor Graphics Corporation
# //  All Rights Reserved.
# //
# //  QuestaSim and its associated documentation contain trade
# //  secrets and commercial or financial information that are the property of
# //  Mentor Graphics Corporation and are privileged, confidential,
# //  and exempt from disclosure under the Freedom of Information Act,
# //  5 U.S.C. Section 552. Furthermore, this information
# //  is prohibited from disclosure under the Trade Secrets Act,
# //  18 U.S.C. Section 1905.
# //
# Loading sv_std.std
# Loading mtiUvm.uvm_pkg
# Loading work.AhbGlobalPackage(fast)
# Loading work.AhbMasterAssertionTb_sv_unit(fast)
# Loading work.AhbMasterAssertionTb(fast)
# Loading work.AhbMasterAssertion_sv_unit(fast)
# Loading work.AhbMasterAssertion(fast)
# Loading mtiUvm.questa_uvm_pkg(fast)
# Loading /tools/mentor/questasim_10.6c/questasim/uvm-1.1d/linux/uvm_dpi.so
# log -r /*
#  add wave -r /*
#  coverage save -onexit -assert -directive -cvg -codeAll AhbMasterAssertionTb/AhbMasterAssertionTb_coverage.ucdb
#  run -all
# ----------------------------------------------------------------
# UVM-1.1d
# (C) 2007-2013 Mentor Graphics Corporation
# (C) 2007-2013 Cadence Design Systems, Inc.
# (C) 2006-2013 Synopsys, Inc.
# (C) 2011-2013 Cypress Semiconductor Corp.
# ----------------------------------------------------------------
# 
#   ***********       IMPORTANT RELEASE NOTES         ************
# 
#   You are using a version of the UVM library that has been compiled
#   with `UVM_NO_DEPRECATED undefined.
#   See http://www.eda.org/svdb/view.php?id=3313 for more details.
# 
#   You are using a version of the UVM library that has been compiled
#   with `UVM_OBJECT_MUST_HAVE_CONSTRUCTOR undefined.
#   See http://www.eda.org/svdb/view.php?id=3770 for more details.
# 
#       (Specify +UVM_NO_RELNOTES to turn off this notice)
# 
# UVM_INFO verilog_src/questa_uvm_pkg-1.2/src/questa_uvm_pkg.sv(215) @ 0: reporter [Questa UVM] QUESTA_UVM-1.2.3
# UVM_INFO verilog_src/questa_uvm_pkg-1.2/src/questa_uvm_pkg.sv(217) @ 0: reporter [Questa UVM]  questa_uvm::init(+struct)
# UVM_INFO /fetools/work_area/frontend/nishashetty/ahb_avip_loc/src//hdlTop/masterAgentBFM/AhbMasterAssertion.sv(38) @ 0: reporter [MASTER_ASSERTIONS] MASTER_ASSERTIONS
# UVM_INFO /fetools/work_area/frontend/nishashetty/ahb_avip_loc/src//hvlTop/tb/AhbMasterAssertionTb.sv(120) @ 0: reporter [AhbMasterAssertionTb] Initializing signals when resetn is deasserted started
# UVM_INFO /fetools/work_area/frontend/nishashetty/ahb_avip_loc/src//hvlTop/tb/AhbMasterAssertionTb.sv(139) @ 5: reporter [AhbMasterAssertionTb] Initializing signals ended
# UVM_INFO /fetools/work_area/frontend/nishashetty/ahb_avip_loc/src//hvlTop/tb/AhbMasterAssertionTb.sv(144) @ 5: reporter [AhbMasterAssertionTb] Check that HWDATA is valid when HWRITE is HIGH AssertionPass Task started
# ** Info: HADDR is within the valid range
#    Time: 15 ns Started: 15 ns  Scope: AhbMasterAssertionTb.ahbmasterassertions_u File: /fetools/work_area/frontend/nishashetty/ahb_avip_loc/src//hdlTop/masterAgentBFM/AhbMasterAssertion.sv Line: 80
# ** Info: HRESP is OKAY during a successful transfer
#    Time: 15 ns Started: 15 ns  Scope: AhbMasterAssertionTb.ahbmasterassertions_u File: /fetools/work_area/frontend/nishashetty/ahb_avip_loc/src//hdlTop/masterAgentBFM/AhbMasterAssertion.sv Line: 89
# ** Info: HADDR is aligned based on HSIZE
#    Time: 15 ns Started: 15 ns  Scope: AhbMasterAssertionTb.ahbmasterassertions_u File: /fetools/work_area/frontend/nishashetty/ahb_avip_loc/src//hdlTop/masterAgentBFM/AhbMasterAssertion.sv Line: 71
# ** Info: HTRANS is Valid
#    Time: 15 ns Started: 15 ns  Scope: AhbMasterAssertionTb.ahbmasterassertions_u File: /fetools/work_area/frontend/nishashetty/ahb_avip_loc/src//hdlTop/masterAgentBFM/AhbMasterAssertion.sv Line: 60
# ** Error: HWDATA contains X when HWRITE is asserted!
#    Time: 15 ns Started: 15 ns  Scope: AhbMasterAssertionTb.ahbmasterassertions_u File: /fetools/work_area/frontend/nishashetty/ahb_avip_loc/src//hdlTop/masterAgentBFM/AhbMasterAssertion.sv Line: 52 Expr: ~$isunknown(hwdata)
# ** Error: Transition from BUSY to SEQ failed: Conditions not met!
#    Time: 15 ns Started: 15 ns  Scope: AhbMasterAssertionTb.ahbmasterassertions_u File: /fetools/work_area/frontend/nishashetty/ahb_avip_loc/src//hdlTop/masterAgentBFM/AhbMasterAssertion.sv Line: 149 Expr: htrans==1
# UVM_INFO /fetools/work_area/frontend/nishashetty/ahb_avip_loc/src//hvlTop/tb/AhbMasterAssertionTb.sv(153) @ 25: reporter [AhbMasterAssertionTb] Check that HWDATA is valid when HWRITE is HIGH AssertionPass Task ended
# UVM_INFO /fetools/work_area/frontend/nishashetty/ahb_avip_loc/src//hvlTop/tb/AhbMasterAssertionTb.sv(158) @ 25: reporter [AhbMasterAssertionTb] Check that HWDATA is valid when HWRITE is HIGH AssertionFail Task started
# ** Info: INCR burst type passed: Address incremented correctly
#    Time: 25 ns Started: 25 ns  Scope: AhbMasterAssertionTb.ahbmasterassertions_u File: /fetools/work_area/frontend/nishashetty/ahb_avip_loc/src//hdlTop/masterAgentBFM/AhbMasterAssertion.sv Line: 126
# ** Info: HADDR is within the valid range
#    Time: 25 ns Started: 25 ns  Scope: AhbMasterAssertionTb.ahbmasterassertions_u File: /fetools/work_area/frontend/nishashetty/ahb_avip_loc/src//hdlTop/masterAgentBFM/AhbMasterAssertion.sv Line: 80
# ** Info: HRESP is OKAY during a successful transfer
#    Time: 25 ns Started: 25 ns  Scope: AhbMasterAssertionTb.ahbmasterassertions_u File: /fetools/work_area/frontend/nishashetty/ahb_avip_loc/src//hdlTop/masterAgentBFM/AhbMasterAssertion.sv Line: 89
# ** Info: HADDR is aligned based on HSIZE
#    Time: 25 ns Started: 25 ns  Scope: AhbMasterAssertionTb.ahbmasterassertions_u File: /fetools/work_area/frontend/nishashetty/ahb_avip_loc/src//hdlTop/masterAgentBFM/AhbMasterAssertion.sv Line: 71
# ** Info: HTRANS is Valid
#    Time: 25 ns Started: 25 ns  Scope: AhbMasterAssertionTb.ahbmasterassertions_u File: /fetools/work_area/frontend/nishashetty/ahb_avip_loc/src//hdlTop/masterAgentBFM/AhbMasterAssertion.sv Line: 60
# ** Error: Address changed before HREADY HIGH!
#    Time: 25 ns Started: 15 ns  Scope: AhbMasterAssertionTb.ahbmasterassertions_u File: /fetools/work_area/frontend/nishashetty/ahb_avip_loc/src//hdlTop/masterAgentBFM/AhbMasterAssertion.sv Line: 184 Expr: $stable(haddr)
# ** Info: HWDATA is Valid When HWRITE IS HIGH
#    Time: 25 ns Started: 25 ns  Scope: AhbMasterAssertionTb.ahbmasterassertions_u File: /fetools/work_area/frontend/nishashetty/ahb_avip_loc/src//hdlTop/masterAgentBFM/AhbMasterAssertion.sv Line: 51
# ** Info: HREADY remains stable during wait states
#    Time: 25 ns Started: 15 ns  Scope: AhbMasterAssertionTb.ahbmasterassertions_u File: /fetools/work_area/frontend/nishashetty/ahb_avip_loc/src//hdlTop/masterAgentBFM/AhbMasterAssertion.sv Line: 107
# ** Error: Transition from BUSY to SEQ failed: Conditions not met!
#    Time: 25 ns Started: 25 ns  Scope: AhbMasterAssertionTb.ahbmasterassertions_u File: /fetools/work_area/frontend/nishashetty/ahb_avip_loc/src//hdlTop/masterAgentBFM/AhbMasterAssertion.sv Line: 149 Expr: htrans==1
# ** Error: INCR burst type failed: Address not incremented correctly!
#    Time: 35 ns Started: 35 ns  Scope: AhbMasterAssertionTb.ahbmasterassertions_u File: /fetools/work_area/frontend/nishashetty/ahb_avip_loc/src//hdlTop/masterAgentBFM/AhbMasterAssertion.sv Line: 127 Expr: haddr==$past(haddr)+(1<<hsize)
# ** Info: HADDR is within the valid range
#    Time: 35 ns Started: 35 ns  Scope: AhbMasterAssertionTb.ahbmasterassertions_u File: /fetools/work_area/frontend/nishashetty/ahb_avip_loc/src//hdlTop/masterAgentBFM/AhbMasterAssertion.sv Line: 80
# ** Info: HRESP is OKAY during a successful transfer
#    Time: 35 ns Started: 35 ns  Scope: AhbMasterAssertionTb.ahbmasterassertions_u File: /fetools/work_area/frontend/nishashetty/ahb_avip_loc/src//hdlTop/masterAgentBFM/AhbMasterAssertion.sv Line: 89
# ** Info: HADDR is aligned based on HSIZE
#    Time: 35 ns Started: 35 ns  Scope: AhbMasterAssertionTb.ahbmasterassertions_u File: /fetools/work_area/frontend/nishashetty/ahb_avip_loc/src//hdlTop/masterAgentBFM/AhbMasterAssertion.sv Line: 71
# ** Info: HTRANS is Valid
#    Time: 35 ns Started: 35 ns  Scope: AhbMasterAssertionTb.ahbmasterassertions_u File: /fetools/work_area/frontend/nishashetty/ahb_avip_loc/src//hdlTop/masterAgentBFM/AhbMasterAssertion.sv Line: 60
# ** Error: Address changed before HREADY HIGH!
#    Time: 35 ns Started: 25 ns  Scope: AhbMasterAssertionTb.ahbmasterassertions_u File: /fetools/work_area/frontend/nishashetty/ahb_avip_loc/src//hdlTop/masterAgentBFM/AhbMasterAssertion.sv Line: 184 Expr: hready==0
# ** Info: HWDATA is Valid When HWRITE IS HIGH
#    Time: 35 ns Started: 35 ns  Scope: AhbMasterAssertionTb.ahbmasterassertions_u File: /fetools/work_area/frontend/nishashetty/ahb_avip_loc/src//hdlTop/masterAgentBFM/AhbMasterAssertion.sv Line: 51
# ** Info: HREADY remains stable during wait states
#    Time: 35 ns Started: 25 ns  Scope: AhbMasterAssertionTb.ahbmasterassertions_u File: /fetools/work_area/frontend/nishashetty/ahb_avip_loc/src//hdlTop/masterAgentBFM/AhbMasterAssertion.sv Line: 107
# ** Error: Transition from BUSY to SEQ failed: Conditions not met!
#    Time: 35 ns Started: 35 ns  Scope: AhbMasterAssertionTb.ahbmasterassertions_u File: /fetools/work_area/frontend/nishashetty/ahb_avip_loc/src//hdlTop/masterAgentBFM/AhbMasterAssertion.sv Line: 149 Expr: htrans==1
# UVM_INFO /fetools/work_area/frontend/nishashetty/ahb_avip_loc/src//hvlTop/tb/AhbMasterAssertionTb.sv(167) @ 45: reporter [AhbMasterAssertionTb] Check that HWDATA is valid when HWRITE is HIGH AssertionFail Task ended
# UVM_INFO /fetools/work_area/frontend/nishashetty/ahb_avip_loc/src//hvlTop/tb/AhbMasterAssertionTb.sv(172) @ 45: reporter [AhbMasterAssertionTb] Ensure HADDR is aligned based on HSIZE AssertionPass task started
# ** Error: INCR burst type failed: Address not incremented correctly!
#    Time: 45 ns Started: 45 ns  Scope: AhbMasterAssertionTb.ahbmasterassertions_u File: /fetools/work_area/frontend/nishashetty/ahb_avip_loc/src//hdlTop/masterAgentBFM/AhbMasterAssertion.sv Line: 127 Expr: haddr==$past(haddr)+(1<<hsize)
# ** Info: HADDR is within the valid range
#    Time: 45 ns Started: 45 ns  Scope: AhbMasterAssertionTb.ahbmasterassertions_u File: /fetools/work_area/frontend/nishashetty/ahb_avip_loc/src//hdlTop/masterAgentBFM/AhbMasterAssertion.sv Line: 80
# ** Info: HRESP is OKAY during a successful transfer
#    Time: 45 ns Started: 45 ns  Scope: AhbMasterAssertionTb.ahbmasterassertions_u File: /fetools/work_area/frontend/nishashetty/ahb_avip_loc/src//hdlTop/masterAgentBFM/AhbMasterAssertion.sv Line: 89
# ** Info: HADDR is aligned based on HSIZE
#    Time: 45 ns Started: 45 ns  Scope: AhbMasterAssertionTb.ahbmasterassertions_u File: /fetools/work_area/frontend/nishashetty/ahb_avip_loc/src//hdlTop/masterAgentBFM/AhbMasterAssertion.sv Line: 71
# ** Info: HTRANS is Valid
#    Time: 45 ns Started: 45 ns  Scope: AhbMasterAssertionTb.ahbmasterassertions_u File: /fetools/work_area/frontend/nishashetty/ahb_avip_loc/src//hdlTop/masterAgentBFM/AhbMasterAssertion.sv Line: 60
# ** Error: Address changed before HREADY HIGH!
#    Time: 45 ns Started: 35 ns  Scope: AhbMasterAssertionTb.ahbmasterassertions_u File: /fetools/work_area/frontend/nishashetty/ahb_avip_loc/src//hdlTop/masterAgentBFM/AhbMasterAssertion.sv Line: 184 Expr: hready==0
# ** Error: HWDATA contains X when HWRITE is asserted!
#    Time: 45 ns Started: 45 ns  Scope: AhbMasterAssertionTb.ahbmasterassertions_u File: /fetools/work_area/frontend/nishashetty/ahb_avip_loc/src//hdlTop/masterAgentBFM/AhbMasterAssertion.sv Line: 52 Expr: ~$isunknown(hwdata)
# ** Info: HREADY remains stable during wait states
#    Time: 45 ns Started: 35 ns  Scope: AhbMasterAssertionTb.ahbmasterassertions_u File: /fetools/work_area/frontend/nishashetty/ahb_avip_loc/src//hdlTop/masterAgentBFM/AhbMasterAssertion.sv Line: 107
# ** Error: Transition from BUSY to SEQ failed: Conditions not met!
#    Time: 45 ns Started: 45 ns  Scope: AhbMasterAssertionTb.ahbmasterassertions_u File: /fetools/work_area/frontend/nishashetty/ahb_avip_loc/src//hdlTop/masterAgentBFM/AhbMasterAssertion.sv Line: 149 Expr: htrans==1
# ** Error: INCR burst type failed: Address not incremented correctly!
#    Time: 55 ns Started: 55 ns  Scope: AhbMasterAssertionTb.ahbmasterassertions_u File: /fetools/work_area/frontend/nishashetty/ahb_avip_loc/src//hdlTop/masterAgentBFM/AhbMasterAssertion.sv Line: 127 Expr: haddr==$past(haddr)+(1<<hsize)
# ** Info: HADDR is within the valid range
#    Time: 55 ns Started: 55 ns  Scope: AhbMasterAssertionTb.ahbmasterassertions_u File: /fetools/work_area/frontend/nishashetty/ahb_avip_loc/src//hdlTop/masterAgentBFM/AhbMasterAssertion.sv Line: 80
# ** Info: HRESP is OKAY during a successful transfer
#    Time: 55 ns Started: 55 ns  Scope: AhbMasterAssertionTb.ahbmasterassertions_u File: /fetools/work_area/frontend/nishashetty/ahb_avip_loc/src//hdlTop/masterAgentBFM/AhbMasterAssertion.sv Line: 89
# ** Info: HADDR is aligned based on HSIZE
#    Time: 55 ns Started: 55 ns  Scope: AhbMasterAssertionTb.ahbmasterassertions_u File: /fetools/work_area/frontend/nishashetty/ahb_avip_loc/src//hdlTop/masterAgentBFM/AhbMasterAssertion.sv Line: 71
# ** Info: HTRANS is Valid
#    Time: 55 ns Started: 55 ns  Scope: AhbMasterAssertionTb.ahbmasterassertions_u File: /fetools/work_area/frontend/nishashetty/ahb_avip_loc/src//hdlTop/masterAgentBFM/AhbMasterAssertion.sv Line: 60
# ** Error: Address changed before HREADY HIGH!
#    Time: 55 ns Started: 45 ns  Scope: AhbMasterAssertionTb.ahbmasterassertions_u File: /fetools/work_area/frontend/nishashetty/ahb_avip_loc/src//hdlTop/masterAgentBFM/AhbMasterAssertion.sv Line: 184 Expr: hready==0
# ** Error: HWDATA contains X when HWRITE is asserted!
#    Time: 55 ns Started: 55 ns  Scope: AhbMasterAssertionTb.ahbmasterassertions_u File: /fetools/work_area/frontend/nishashetty/ahb_avip_loc/src//hdlTop/masterAgentBFM/AhbMasterAssertion.sv Line: 52 Expr: ~$isunknown(hwdata)
# ** Info: HREADY remains stable during wait states
#    Time: 55 ns Started: 45 ns  Scope: AhbMasterAssertionTb.ahbmasterassertions_u File: /fetools/work_area/frontend/nishashetty/ahb_avip_loc/src//hdlTop/masterAgentBFM/AhbMasterAssertion.sv Line: 107
# ** Error: Transition from BUSY to SEQ failed: Conditions not met!
#    Time: 55 ns Started: 55 ns  Scope: AhbMasterAssertionTb.ahbmasterassertions_u File: /fetools/work_area/frontend/nishashetty/ahb_avip_loc/src//hdlTop/masterAgentBFM/AhbMasterAssertion.sv Line: 149 Expr: htrans==1
# UVM_INFO /fetools/work_area/frontend/nishashetty/ahb_avip_loc/src//hvlTop/tb/AhbMasterAssertionTb.sv(181) @ 65: reporter [AhbMasterAssertionTb] Ensure HADDR is aligned based on HSIZE AssertionPass Task ended
# UVM_INFO /fetools/work_area/frontend/nishashetty/ahb_avip_loc/src//hvlTop/tb/AhbMasterAssertionTb.sv(186) @ 65: reporter [AhbMasterAssertionTb] Ensure HADDR is aligned based on HSIZE AssertionFail task started
# ** Error: INCR burst type failed: Address not incremented correctly!
#    Time: 65 ns Started: 65 ns  Scope: AhbMasterAssertionTb.ahbmasterassertions_u File: /fetools/work_area/frontend/nishashetty/ahb_avip_loc/src//hdlTop/masterAgentBFM/AhbMasterAssertion.sv Line: 127 Expr: haddr==$past(haddr)+(1<<hsize)
# ** Info: HADDR is within the valid range
#    Time: 65 ns Started: 65 ns  Scope: AhbMasterAssertionTb.ahbmasterassertions_u File: /fetools/work_area/frontend/nishashetty/ahb_avip_loc/src//hdlTop/masterAgentBFM/AhbMasterAssertion.sv Line: 80
# ** Info: HRESP is OKAY during a successful transfer
#    Time: 65 ns Started: 65 ns  Scope: AhbMasterAssertionTb.ahbmasterassertions_u File: /fetools/work_area/frontend/nishashetty/ahb_avip_loc/src//hdlTop/masterAgentBFM/AhbMasterAssertion.sv Line: 89
# ** Info: HADDR is aligned based on HSIZE
#    Time: 65 ns Started: 65 ns  Scope: AhbMasterAssertionTb.ahbmasterassertions_u File: /fetools/work_area/frontend/nishashetty/ahb_avip_loc/src//hdlTop/masterAgentBFM/AhbMasterAssertion.sv Line: 71
# ** Info: HTRANS is Valid
#    Time: 65 ns Started: 65 ns  Scope: AhbMasterAssertionTb.ahbmasterassertions_u File: /fetools/work_area/frontend/nishashetty/ahb_avip_loc/src//hdlTop/masterAgentBFM/AhbMasterAssertion.sv Line: 60
# ** Error: Address changed before HREADY HIGH!
#    Time: 65 ns Started: 55 ns  Scope: AhbMasterAssertionTb.ahbmasterassertions_u File: /fetools/work_area/frontend/nishashetty/ahb_avip_loc/src//hdlTop/masterAgentBFM/AhbMasterAssertion.sv Line: 184 Expr: $stable(haddr)
# ** Error: HWDATA contains X when HWRITE is asserted!
#    Time: 65 ns Started: 65 ns  Scope: AhbMasterAssertionTb.ahbmasterassertions_u File: /fetools/work_area/frontend/nishashetty/ahb_avip_loc/src//hdlTop/masterAgentBFM/AhbMasterAssertion.sv Line: 52 Expr: ~$isunknown(hwdata)
# ** Info: HREADY remains stable during wait states
#    Time: 65 ns Started: 55 ns  Scope: AhbMasterAssertionTb.ahbmasterassertions_u File: /fetools/work_area/frontend/nishashetty/ahb_avip_loc/src//hdlTop/masterAgentBFM/AhbMasterAssertion.sv Line: 107
# ** Error: Transition from BUSY to SEQ failed: Conditions not met!
#    Time: 65 ns Started: 65 ns  Scope: AhbMasterAssertionTb.ahbmasterassertions_u File: /fetools/work_area/frontend/nishashetty/ahb_avip_loc/src//hdlTop/masterAgentBFM/AhbMasterAssertion.sv Line: 149 Expr: htrans==1
# ** Error: INCR burst type failed: Address not incremented correctly!
#    Time: 75 ns Started: 75 ns  Scope: AhbMasterAssertionTb.ahbmasterassertions_u File: /fetools/work_area/frontend/nishashetty/ahb_avip_loc/src//hdlTop/masterAgentBFM/AhbMasterAssertion.sv Line: 127 Expr: haddr==$past(haddr)+(1<<hsize)
# ** Info: HADDR is within the valid range
#    Time: 75 ns Started: 75 ns  Scope: AhbMasterAssertionTb.ahbmasterassertions_u File: /fetools/work_area/frontend/nishashetty/ahb_avip_loc/src//hdlTop/masterAgentBFM/AhbMasterAssertion.sv Line: 80
# ** Info: HRESP is OKAY during a successful transfer
#    Time: 75 ns Started: 75 ns  Scope: AhbMasterAssertionTb.ahbmasterassertions_u File: /fetools/work_area/frontend/nishashetty/ahb_avip_loc/src//hdlTop/masterAgentBFM/AhbMasterAssertion.sv Line: 89
# ** Info: HADDR is aligned based on HSIZE
#    Time: 75 ns Started: 75 ns  Scope: AhbMasterAssertionTb.ahbmasterassertions_u File: /fetools/work_area/frontend/nishashetty/ahb_avip_loc/src//hdlTop/masterAgentBFM/AhbMasterAssertion.sv Line: 71
# ** Info: HTRANS is Valid
#    Time: 75 ns Started: 75 ns  Scope: AhbMasterAssertionTb.ahbmasterassertions_u File: /fetools/work_area/frontend/nishashetty/ahb_avip_loc/src//hdlTop/masterAgentBFM/AhbMasterAssertion.sv Line: 60
# ** Error: Address changed before HREADY HIGH!
#    Time: 75 ns Started: 65 ns  Scope: AhbMasterAssertionTb.ahbmasterassertions_u File: /fetools/work_area/frontend/nishashetty/ahb_avip_loc/src//hdlTop/masterAgentBFM/AhbMasterAssertion.sv Line: 184 Expr: hready==0
# ** Error: HWDATA contains X when HWRITE is asserted!
#    Time: 75 ns Started: 75 ns  Scope: AhbMasterAssertionTb.ahbmasterassertions_u File: /fetools/work_area/frontend/nishashetty/ahb_avip_loc/src//hdlTop/masterAgentBFM/AhbMasterAssertion.sv Line: 52 Expr: ~$isunknown(hwdata)
# ** Info: HREADY remains stable during wait states
#    Time: 75 ns Started: 65 ns  Scope: AhbMasterAssertionTb.ahbmasterassertions_u File: /fetools/work_area/frontend/nishashetty/ahb_avip_loc/src//hdlTop/masterAgentBFM/AhbMasterAssertion.sv Line: 107
# ** Error: Transition from BUSY to SEQ failed: Conditions not met!
#    Time: 75 ns Started: 75 ns  Scope: AhbMasterAssertionTb.ahbmasterassertions_u File: /fetools/work_area/frontend/nishashetty/ahb_avip_loc/src//hdlTop/masterAgentBFM/AhbMasterAssertion.sv Line: 149 Expr: htrans==1
# UVM_INFO /fetools/work_area/frontend/nishashetty/ahb_avip_loc/src//hvlTop/tb/AhbMasterAssertionTb.sv(194) @ 85: reporter [AhbMasterAssertionTb] Ensure HADDR is aligned based on HSIZE AssertionFail Task ended
# UVM_INFO /fetools/work_area/frontend/nishashetty/ahb_avip_loc/src//hvlTop/tb/AhbMasterAssertionTb.sv(201) @ 85: reporter [AhbMasterAssertionTb] Check if HADDR is within the valid range AssertionPass Task started
# ** Info: HADDR is within the valid range
#    Time: 85 ns Started: 85 ns  Scope: AhbMasterAssertionTb.ahbmasterassertions_u File: /fetools/work_area/frontend/nishashetty/ahb_avip_loc/src//hdlTop/masterAgentBFM/AhbMasterAssertion.sv Line: 80
# ** Info: HRESP is OKAY during a successful transfer
#    Time: 85 ns Started: 85 ns  Scope: AhbMasterAssertionTb.ahbmasterassertions_u File: /fetools/work_area/frontend/nishashetty/ahb_avip_loc/src//hdlTop/masterAgentBFM/AhbMasterAssertion.sv Line: 89
# ** Error: HADDR is not aligned based on HSIZE!
#    Time: 85 ns Started: 85 ns  Scope: AhbMasterAssertionTb.ahbmasterassertions_u File: /fetools/work_area/frontend/nishashetty/ahb_avip_loc/src//hdlTop/masterAgentBFM/AhbMasterAssertion.sv Line: 72 Expr: haddr[1:0]==0
# ** Info: HTRANS is Valid
#    Time: 85 ns Started: 85 ns  Scope: AhbMasterAssertionTb.ahbmasterassertions_u File: /fetools/work_area/frontend/nishashetty/ahb_avip_loc/src//hdlTop/masterAgentBFM/AhbMasterAssertion.sv Line: 60
# ** Error: Address changed before HREADY HIGH!
#    Time: 85 ns Started: 75 ns  Scope: AhbMasterAssertionTb.ahbmasterassertions_u File: /fetools/work_area/frontend/nishashetty/ahb_avip_loc/src//hdlTop/masterAgentBFM/AhbMasterAssertion.sv Line: 184 Expr: $stable(haddr)
# ** Info: HWDATA is Valid When HWRITE IS HIGH
#    Time: 85 ns Started: 85 ns  Scope: AhbMasterAssertionTb.ahbmasterassertions_u File: /fetools/work_area/frontend/nishashetty/ahb_avip_loc/src//hdlTop/masterAgentBFM/AhbMasterAssertion.sv Line: 51
# ** Info: HREADY remains stable during wait states
#    Time: 85 ns Started: 75 ns  Scope: AhbMasterAssertionTb.ahbmasterassertions_u File: /fetools/work_area/frontend/nishashetty/ahb_avip_loc/src//hdlTop/masterAgentBFM/AhbMasterAssertion.sv Line: 107
# ** Error: Transition from BUSY to SEQ failed: Conditions not met!
#    Time: 85 ns Started: 85 ns  Scope: AhbMasterAssertionTb.ahbmasterassertions_u File: /fetools/work_area/frontend/nishashetty/ahb_avip_loc/src//hdlTop/masterAgentBFM/AhbMasterAssertion.sv Line: 149 Expr: htrans==1
# ** Info: HADDR is within the valid range
#    Time: 95 ns Started: 95 ns  Scope: AhbMasterAssertionTb.ahbmasterassertions_u File: /fetools/work_area/frontend/nishashetty/ahb_avip_loc/src//hdlTop/masterAgentBFM/AhbMasterAssertion.sv Line: 80
# ** Info: HRESP is OKAY during a successful transfer
#    Time: 95 ns Started: 95 ns  Scope: AhbMasterAssertionTb.ahbmasterassertions_u File: /fetools/work_area/frontend/nishashetty/ahb_avip_loc/src//hdlTop/masterAgentBFM/AhbMasterAssertion.sv Line: 89
# ** Error: HADDR is not aligned based on HSIZE!
#    Time: 95 ns Started: 95 ns  Scope: AhbMasterAssertionTb.ahbmasterassertions_u File: /fetools/work_area/frontend/nishashetty/ahb_avip_loc/src//hdlTop/masterAgentBFM/AhbMasterAssertion.sv Line: 72 Expr: haddr[1:0]==0
# ** Info: HTRANS is Valid
#    Time: 95 ns Started: 95 ns  Scope: AhbMasterAssertionTb.ahbmasterassertions_u File: /fetools/work_area/frontend/nishashetty/ahb_avip_loc/src//hdlTop/masterAgentBFM/AhbMasterAssertion.sv Line: 60
# ** Error: Address changed before HREADY HIGH!
#    Time: 95 ns Started: 85 ns  Scope: AhbMasterAssertionTb.ahbmasterassertions_u File: /fetools/work_area/frontend/nishashetty/ahb_avip_loc/src//hdlTop/masterAgentBFM/AhbMasterAssertion.sv Line: 184 Expr: hready==0
# ** Info: HWDATA is Valid When HWRITE IS HIGH
#    Time: 95 ns Started: 95 ns  Scope: AhbMasterAssertionTb.ahbmasterassertions_u File: /fetools/work_area/frontend/nishashetty/ahb_avip_loc/src//hdlTop/masterAgentBFM/AhbMasterAssertion.sv Line: 51
# ** Info: HREADY remains stable during wait states
#    Time: 95 ns Started: 85 ns  Scope: AhbMasterAssertionTb.ahbmasterassertions_u File: /fetools/work_area/frontend/nishashetty/ahb_avip_loc/src//hdlTop/masterAgentBFM/AhbMasterAssertion.sv Line: 107
# ** Error: Transition from BUSY to SEQ failed: Conditions not met!
#    Time: 95 ns Started: 95 ns  Scope: AhbMasterAssertionTb.ahbmasterassertions_u File: /fetools/work_area/frontend/nishashetty/ahb_avip_loc/src//hdlTop/masterAgentBFM/AhbMasterAssertion.sv Line: 149 Expr: htrans==1
# UVM_INFO /fetools/work_area/frontend/nishashetty/ahb_avip_loc/src//hvlTop/tb/AhbMasterAssertionTb.sv(209) @ 105: reporter [AhbMasterAssertionTb] Check if HADDR is within the valid range AssertionPass Task ended
# UVM_INFO /fetools/work_area/frontend/nishashetty/ahb_avip_loc/src//hvlTop/tb/AhbMasterAssertionTb.sv(214) @ 105: reporter [AhbMasterAssertionTb] Check if HADDR is within the valid range AssertionFail Task started
# ** Error: INCR burst type failed: Address not incremented correctly!
#    Time: 105 ns Started: 105 ns  Scope: AhbMasterAssertionTb.ahbmasterassertions_u File: /fetools/work_area/frontend/nishashetty/ahb_avip_loc/src//hdlTop/masterAgentBFM/AhbMasterAssertion.sv Line: 127 Expr: haddr==$past(haddr)+(1<<hsize)
# ** Info: HADDR is within the valid range
#    Time: 105 ns Started: 105 ns  Scope: AhbMasterAssertionTb.ahbmasterassertions_u File: /fetools/work_area/frontend/nishashetty/ahb_avip_loc/src//hdlTop/masterAgentBFM/AhbMasterAssertion.sv Line: 80
# ** Info: HRESP is OKAY during a successful transfer
#    Time: 105 ns Started: 105 ns  Scope: AhbMasterAssertionTb.ahbmasterassertions_u File: /fetools/work_area/frontend/nishashetty/ahb_avip_loc/src//hdlTop/masterAgentBFM/AhbMasterAssertion.sv Line: 89
# ** Info: HADDR is aligned based on HSIZE
#    Time: 105 ns Started: 105 ns  Scope: AhbMasterAssertionTb.ahbmasterassertions_u File: /fetools/work_area/frontend/nishashetty/ahb_avip_loc/src//hdlTop/masterAgentBFM/AhbMasterAssertion.sv Line: 71
# ** Info: HTRANS is Valid
#    Time: 105 ns Started: 105 ns  Scope: AhbMasterAssertionTb.ahbmasterassertions_u File: /fetools/work_area/frontend/nishashetty/ahb_avip_loc/src//hdlTop/masterAgentBFM/AhbMasterAssertion.sv Line: 60
# ** Error: Address changed before HREADY HIGH!
#    Time: 105 ns Started: 95 ns  Scope: AhbMasterAssertionTb.ahbmasterassertions_u File: /fetools/work_area/frontend/nishashetty/ahb_avip_loc/src//hdlTop/masterAgentBFM/AhbMasterAssertion.sv Line: 184 Expr: $stable(haddr)
# ** Info: HWDATA is Valid When HWRITE IS HIGH
#    Time: 105 ns Started: 105 ns  Scope: AhbMasterAssertionTb.ahbmasterassertions_u File: /fetools/work_area/frontend/nishashetty/ahb_avip_loc/src//hdlTop/masterAgentBFM/AhbMasterAssertion.sv Line: 51
# ** Info: HREADY remains stable during wait states
#    Time: 105 ns Started: 95 ns  Scope: AhbMasterAssertionTb.ahbmasterassertions_u File: /fetools/work_area/frontend/nishashetty/ahb_avip_loc/src//hdlTop/masterAgentBFM/AhbMasterAssertion.sv Line: 107
# ** Error: Transition from BUSY to SEQ failed: Conditions not met!
#    Time: 105 ns Started: 105 ns  Scope: AhbMasterAssertionTb.ahbmasterassertions_u File: /fetools/work_area/frontend/nishashetty/ahb_avip_loc/src//hdlTop/masterAgentBFM/AhbMasterAssertion.sv Line: 149 Expr: htrans==1
# ** Error: INCR burst type failed: Address not incremented correctly!
#    Time: 115 ns Started: 115 ns  Scope: AhbMasterAssertionTb.ahbmasterassertions_u File: /fetools/work_area/frontend/nishashetty/ahb_avip_loc/src//hdlTop/masterAgentBFM/AhbMasterAssertion.sv Line: 127 Expr: haddr==$past(haddr)+(1<<hsize)
# ** Info: HADDR is within the valid range
#    Time: 115 ns Started: 115 ns  Scope: AhbMasterAssertionTb.ahbmasterassertions_u File: /fetools/work_area/frontend/nishashetty/ahb_avip_loc/src//hdlTop/masterAgentBFM/AhbMasterAssertion.sv Line: 80
# ** Info: HRESP is OKAY during a successful transfer
#    Time: 115 ns Started: 115 ns  Scope: AhbMasterAssertionTb.ahbmasterassertions_u File: /fetools/work_area/frontend/nishashetty/ahb_avip_loc/src//hdlTop/masterAgentBFM/AhbMasterAssertion.sv Line: 89
# ** Info: HADDR is aligned based on HSIZE
#    Time: 115 ns Started: 115 ns  Scope: AhbMasterAssertionTb.ahbmasterassertions_u File: /fetools/work_area/frontend/nishashetty/ahb_avip_loc/src//hdlTop/masterAgentBFM/AhbMasterAssertion.sv Line: 71
# ** Info: HTRANS is Valid
#    Time: 115 ns Started: 115 ns  Scope: AhbMasterAssertionTb.ahbmasterassertions_u File: /fetools/work_area/frontend/nishashetty/ahb_avip_loc/src//hdlTop/masterAgentBFM/AhbMasterAssertion.sv Line: 60
# ** Error: Address changed before HREADY HIGH!
#    Time: 115 ns Started: 105 ns  Scope: AhbMasterAssertionTb.ahbmasterassertions_u File: /fetools/work_area/frontend/nishashetty/ahb_avip_loc/src//hdlTop/masterAgentBFM/AhbMasterAssertion.sv Line: 184 Expr: hready==0
# ** Info: HWDATA is Valid When HWRITE IS HIGH
#    Time: 115 ns Started: 115 ns  Scope: AhbMasterAssertionTb.ahbmasterassertions_u File: /fetools/work_area/frontend/nishashetty/ahb_avip_loc/src//hdlTop/masterAgentBFM/AhbMasterAssertion.sv Line: 51
# ** Info: HREADY remains stable during wait states
#    Time: 115 ns Started: 105 ns  Scope: AhbMasterAssertionTb.ahbmasterassertions_u File: /fetools/work_area/frontend/nishashetty/ahb_avip_loc/src//hdlTop/masterAgentBFM/AhbMasterAssertion.sv Line: 107
# ** Error: Transition from BUSY to SEQ failed: Conditions not met!
#    Time: 115 ns Started: 115 ns  Scope: AhbMasterAssertionTb.ahbmasterassertions_u File: /fetools/work_area/frontend/nishashetty/ahb_avip_loc/src//hdlTop/masterAgentBFM/AhbMasterAssertion.sv Line: 149 Expr: htrans==1
# UVM_INFO /fetools/work_area/frontend/nishashetty/ahb_avip_loc/src//hvlTop/tb/AhbMasterAssertionTb.sv(223) @ 125: reporter [AhbMasterAssertionTb] Check if HADDR is within the valid range AssertionFail Task ended
# UVM_INFO /fetools/work_area/frontend/nishashetty/ahb_avip_loc/src//hvlTop/tb/AhbMasterAssertionTb.sv(229) @ 125: reporter [AhbMasterAssertionTb] Ensure HRESP is OKAY (0) during successful transfers AssertionPass Task started
# ** Info: HADDR is within the valid range
#    Time: 125 ns Started: 125 ns  Scope: AhbMasterAssertionTb.ahbmasterassertions_u File: /fetools/work_area/frontend/nishashetty/ahb_avip_loc/src//hdlTop/masterAgentBFM/AhbMasterAssertion.sv Line: 80
# ** Info: HRESP is OKAY during a successful transfer
#    Time: 125 ns Started: 125 ns  Scope: AhbMasterAssertionTb.ahbmasterassertions_u File: /fetools/work_area/frontend/nishashetty/ahb_avip_loc/src//hdlTop/masterAgentBFM/AhbMasterAssertion.sv Line: 89
# ** Error: HADDR is not aligned based on HSIZE!
#    Time: 125 ns Started: 125 ns  Scope: AhbMasterAssertionTb.ahbmasterassertions_u File: /fetools/work_area/frontend/nishashetty/ahb_avip_loc/src//hdlTop/masterAgentBFM/AhbMasterAssertion.sv Line: 72 Expr: haddr[1:0]==0
# ** Info: HTRANS is Valid
#    Time: 125 ns Started: 125 ns  Scope: AhbMasterAssertionTb.ahbmasterassertions_u File: /fetools/work_area/frontend/nishashetty/ahb_avip_loc/src//hdlTop/masterAgentBFM/AhbMasterAssertion.sv Line: 60
# ** Error: Address changed before HREADY HIGH!
#    Time: 125 ns Started: 115 ns  Scope: AhbMasterAssertionTb.ahbmasterassertions_u File: /fetools/work_area/frontend/nishashetty/ahb_avip_loc/src//hdlTop/masterAgentBFM/AhbMasterAssertion.sv Line: 184 Expr: $stable(haddr)
# ** Info: HWDATA is Valid When HWRITE IS HIGH
#    Time: 125 ns Started: 125 ns  Scope: AhbMasterAssertionTb.ahbmasterassertions_u File: /fetools/work_area/frontend/nishashetty/ahb_avip_loc/src//hdlTop/masterAgentBFM/AhbMasterAssertion.sv Line: 51
# ** Info: HREADY remains stable during wait states
#    Time: 125 ns Started: 115 ns  Scope: AhbMasterAssertionTb.ahbmasterassertions_u File: /fetools/work_area/frontend/nishashetty/ahb_avip_loc/src//hdlTop/masterAgentBFM/AhbMasterAssertion.sv Line: 107
# ** Error: Transition from BUSY to SEQ failed: Conditions not met!
#    Time: 125 ns Started: 125 ns  Scope: AhbMasterAssertionTb.ahbmasterassertions_u File: /fetools/work_area/frontend/nishashetty/ahb_avip_loc/src//hdlTop/masterAgentBFM/AhbMasterAssertion.sv Line: 149 Expr: htrans==1
# ** Info: HADDR is within the valid range
#    Time: 135 ns Started: 135 ns  Scope: AhbMasterAssertionTb.ahbmasterassertions_u File: /fetools/work_area/frontend/nishashetty/ahb_avip_loc/src//hdlTop/masterAgentBFM/AhbMasterAssertion.sv Line: 80
# ** Info: HRESP is OKAY during a successful transfer
#    Time: 135 ns Started: 135 ns  Scope: AhbMasterAssertionTb.ahbmasterassertions_u File: /fetools/work_area/frontend/nishashetty/ahb_avip_loc/src//hdlTop/masterAgentBFM/AhbMasterAssertion.sv Line: 89
# ** Error: HADDR is not aligned based on HSIZE!
#    Time: 135 ns Started: 135 ns  Scope: AhbMasterAssertionTb.ahbmasterassertions_u File: /fetools/work_area/frontend/nishashetty/ahb_avip_loc/src//hdlTop/masterAgentBFM/AhbMasterAssertion.sv Line: 72 Expr: haddr[1:0]==0
# ** Info: HTRANS is Valid
#    Time: 135 ns Started: 135 ns  Scope: AhbMasterAssertionTb.ahbmasterassertions_u File: /fetools/work_area/frontend/nishashetty/ahb_avip_loc/src//hdlTop/masterAgentBFM/AhbMasterAssertion.sv Line: 60
# ** Error: Address changed before HREADY HIGH!
#    Time: 135 ns Started: 125 ns  Scope: AhbMasterAssertionTb.ahbmasterassertions_u File: /fetools/work_area/frontend/nishashetty/ahb_avip_loc/src//hdlTop/masterAgentBFM/AhbMasterAssertion.sv Line: 184 Expr: hready==0
# ** Info: HWDATA is Valid When HWRITE IS HIGH
#    Time: 135 ns Started: 135 ns  Scope: AhbMasterAssertionTb.ahbmasterassertions_u File: /fetools/work_area/frontend/nishashetty/ahb_avip_loc/src//hdlTop/masterAgentBFM/AhbMasterAssertion.sv Line: 51
# ** Info: HREADY remains stable during wait states
#    Time: 135 ns Started: 125 ns  Scope: AhbMasterAssertionTb.ahbmasterassertions_u File: /fetools/work_area/frontend/nishashetty/ahb_avip_loc/src//hdlTop/masterAgentBFM/AhbMasterAssertion.sv Line: 107
# ** Error: Transition from BUSY to SEQ failed: Conditions not met!
#    Time: 135 ns Started: 135 ns  Scope: AhbMasterAssertionTb.ahbmasterassertions_u File: /fetools/work_area/frontend/nishashetty/ahb_avip_loc/src//hdlTop/masterAgentBFM/AhbMasterAssertion.sv Line: 149 Expr: htrans==1
# UVM_INFO /fetools/work_area/frontend/nishashetty/ahb_avip_loc/src//hvlTop/tb/AhbMasterAssertionTb.sv(238) @ 145: reporter [AhbMasterAssertionTb] Ensure HRESP is OKAY (0) during successful transfers AssertionPass Task ended
# UVM_INFO /fetools/work_area/frontend/nishashetty/ahb_avip_loc/src//hvlTop/tb/AhbMasterAssertionTb.sv(243) @ 145: reporter [AhbMasterAssertionTb] Ensure HRESP is OKAY (0) during successful transfers AssertionFail Task started
# ** Error: INCR burst type failed: Address not incremented correctly!
#    Time: 145 ns Started: 145 ns  Scope: AhbMasterAssertionTb.ahbmasterassertions_u File: /fetools/work_area/frontend/nishashetty/ahb_avip_loc/src//hdlTop/masterAgentBFM/AhbMasterAssertion.sv Line: 127 Expr: haddr==$past(haddr)+(1<<hsize)
# ** Info: HADDR is within the valid range
#    Time: 145 ns Started: 145 ns  Scope: AhbMasterAssertionTb.ahbmasterassertions_u File: /fetools/work_area/frontend/nishashetty/ahb_avip_loc/src//hdlTop/masterAgentBFM/AhbMasterAssertion.sv Line: 80
# ** Info: HRESP is OKAY during a successful transfer
#    Time: 145 ns Started: 145 ns  Scope: AhbMasterAssertionTb.ahbmasterassertions_u File: /fetools/work_area/frontend/nishashetty/ahb_avip_loc/src//hdlTop/masterAgentBFM/AhbMasterAssertion.sv Line: 89
# ** Info: HADDR is aligned based on HSIZE
#    Time: 145 ns Started: 145 ns  Scope: AhbMasterAssertionTb.ahbmasterassertions_u File: /fetools/work_area/frontend/nishashetty/ahb_avip_loc/src//hdlTop/masterAgentBFM/AhbMasterAssertion.sv Line: 71
# ** Info: HTRANS is Valid
#    Time: 145 ns Started: 145 ns  Scope: AhbMasterAssertionTb.ahbmasterassertions_u File: /fetools/work_area/frontend/nishashetty/ahb_avip_loc/src//hdlTop/masterAgentBFM/AhbMasterAssertion.sv Line: 60
# ** Error: Address changed before HREADY HIGH!
#    Time: 145 ns Started: 135 ns  Scope: AhbMasterAssertionTb.ahbmasterassertions_u File: /fetools/work_area/frontend/nishashetty/ahb_avip_loc/src//hdlTop/masterAgentBFM/AhbMasterAssertion.sv Line: 184 Expr: $stable(haddr)
# ** Info: HWDATA is Valid When HWRITE IS HIGH
#    Time: 145 ns Started: 145 ns  Scope: AhbMasterAssertionTb.ahbmasterassertions_u File: /fetools/work_area/frontend/nishashetty/ahb_avip_loc/src//hdlTop/masterAgentBFM/AhbMasterAssertion.sv Line: 51
# ** Info: HREADY remains stable during wait states
#    Time: 145 ns Started: 135 ns  Scope: AhbMasterAssertionTb.ahbmasterassertions_u File: /fetools/work_area/frontend/nishashetty/ahb_avip_loc/src//hdlTop/masterAgentBFM/AhbMasterAssertion.sv Line: 107
# ** Error: Transition from BUSY to SEQ failed: Conditions not met!
#    Time: 145 ns Started: 145 ns  Scope: AhbMasterAssertionTb.ahbmasterassertions_u File: /fetools/work_area/frontend/nishashetty/ahb_avip_loc/src//hdlTop/masterAgentBFM/AhbMasterAssertion.sv Line: 149 Expr: htrans==1
# ** Error: INCR burst type failed: Address not incremented correctly!
#    Time: 155 ns Started: 155 ns  Scope: AhbMasterAssertionTb.ahbmasterassertions_u File: /fetools/work_area/frontend/nishashetty/ahb_avip_loc/src//hdlTop/masterAgentBFM/AhbMasterAssertion.sv Line: 127 Expr: haddr==$past(haddr)+(1<<hsize)
# ** Info: HADDR is within the valid range
#    Time: 155 ns Started: 155 ns  Scope: AhbMasterAssertionTb.ahbmasterassertions_u File: /fetools/work_area/frontend/nishashetty/ahb_avip_loc/src//hdlTop/masterAgentBFM/AhbMasterAssertion.sv Line: 80
# ** Info: HRESP is OKAY during a successful transfer
#    Time: 155 ns Started: 155 ns  Scope: AhbMasterAssertionTb.ahbmasterassertions_u File: /fetools/work_area/frontend/nishashetty/ahb_avip_loc/src//hdlTop/masterAgentBFM/AhbMasterAssertion.sv Line: 89
# ** Info: HADDR is aligned based on HSIZE
#    Time: 155 ns Started: 155 ns  Scope: AhbMasterAssertionTb.ahbmasterassertions_u File: /fetools/work_area/frontend/nishashetty/ahb_avip_loc/src//hdlTop/masterAgentBFM/AhbMasterAssertion.sv Line: 71
# ** Info: HTRANS is Valid
#    Time: 155 ns Started: 155 ns  Scope: AhbMasterAssertionTb.ahbmasterassertions_u File: /fetools/work_area/frontend/nishashetty/ahb_avip_loc/src//hdlTop/masterAgentBFM/AhbMasterAssertion.sv Line: 60
# ** Error: Address changed before HREADY HIGH!
#    Time: 155 ns Started: 145 ns  Scope: AhbMasterAssertionTb.ahbmasterassertions_u File: /fetools/work_area/frontend/nishashetty/ahb_avip_loc/src//hdlTop/masterAgentBFM/AhbMasterAssertion.sv Line: 184 Expr: hready==0
# ** Info: HWDATA is Valid When HWRITE IS HIGH
#    Time: 155 ns Started: 155 ns  Scope: AhbMasterAssertionTb.ahbmasterassertions_u File: /fetools/work_area/frontend/nishashetty/ahb_avip_loc/src//hdlTop/masterAgentBFM/AhbMasterAssertion.sv Line: 51
# ** Info: HREADY remains stable during wait states
#    Time: 155 ns Started: 145 ns  Scope: AhbMasterAssertionTb.ahbmasterassertions_u File: /fetools/work_area/frontend/nishashetty/ahb_avip_loc/src//hdlTop/masterAgentBFM/AhbMasterAssertion.sv Line: 107
# ** Error: Transition from BUSY to SEQ failed: Conditions not met!
#    Time: 155 ns Started: 155 ns  Scope: AhbMasterAssertionTb.ahbmasterassertions_u File: /fetools/work_area/frontend/nishashetty/ahb_avip_loc/src//hdlTop/masterAgentBFM/AhbMasterAssertion.sv Line: 149 Expr: htrans==1
# UVM_INFO /fetools/work_area/frontend/nishashetty/ahb_avip_loc/src//hvlTop/tb/AhbMasterAssertionTb.sv(250) @ 165: reporter [AhbMasterAssertionTb] Ensure HRESP is OKAY (0) during successful transfers AssertionFail Task ended
# UVM_INFO /fetools/work_area/frontend/nishashetty/ahb_avip_loc/src//hvlTop/tb/AhbMasterAssertionTb.sv(255) @ 165: reporter [AhbMasterAssertionTb] Ensure HRESP is ERROR (1) during successful transfers AssertionPass Task started
# ** Info: HRESP is ERROR during error conditions
#    Time: 165 ns Started: 165 ns  Scope: AhbMasterAssertionTb.ahbmasterassertions_u File: /fetools/work_area/frontend/nishashetty/ahb_avip_loc/src//hdlTop/masterAgentBFM/AhbMasterAssertion.sv Line: 98
# ** Error: INCR burst type failed: Address not incremented correctly!
#    Time: 165 ns Started: 165 ns  Scope: AhbMasterAssertionTb.ahbmasterassertions_u File: /fetools/work_area/frontend/nishashetty/ahb_avip_loc/src//hdlTop/masterAgentBFM/AhbMasterAssertion.sv Line: 127 Expr: haddr==$past(haddr)+(1<<hsize)
# ** Info: HADDR is within the valid range
#    Time: 165 ns Started: 165 ns  Scope: AhbMasterAssertionTb.ahbmasterassertions_u File: /fetools/work_area/frontend/nishashetty/ahb_avip_loc/src//hdlTop/masterAgentBFM/AhbMasterAssertion.sv Line: 80
# ** Error: HRESP is not OKAY for a successful transfer!
#    Time: 165 ns Started: 165 ns  Scope: AhbMasterAssertionTb.ahbmasterassertions_u File: /fetools/work_area/frontend/nishashetty/ahb_avip_loc/src//hdlTop/masterAgentBFM/AhbMasterAssertion.sv Line: 90 Expr: ~hresp
# ** Info: HADDR is aligned based on HSIZE
#    Time: 165 ns Started: 165 ns  Scope: AhbMasterAssertionTb.ahbmasterassertions_u File: /fetools/work_area/frontend/nishashetty/ahb_avip_loc/src//hdlTop/masterAgentBFM/AhbMasterAssertion.sv Line: 71
# ** Info: HTRANS is Valid
#    Time: 165 ns Started: 165 ns  Scope: AhbMasterAssertionTb.ahbmasterassertions_u File: /fetools/work_area/frontend/nishashetty/ahb_avip_loc/src//hdlTop/masterAgentBFM/AhbMasterAssertion.sv Line: 60
# ** Error: Address changed before HREADY HIGH!
#    Time: 165 ns Started: 155 ns  Scope: AhbMasterAssertionTb.ahbmasterassertions_u File: /fetools/work_area/frontend/nishashetty/ahb_avip_loc/src//hdlTop/masterAgentBFM/AhbMasterAssertion.sv Line: 184 Expr: hready==0
# ** Info: HWDATA is Valid When HWRITE IS HIGH
#    Time: 165 ns Started: 165 ns  Scope: AhbMasterAssertionTb.ahbmasterassertions_u File: /fetools/work_area/frontend/nishashetty/ahb_avip_loc/src//hdlTop/masterAgentBFM/AhbMasterAssertion.sv Line: 51
# ** Info: HREADY remains stable during wait states
#    Time: 165 ns Started: 155 ns  Scope: AhbMasterAssertionTb.ahbmasterassertions_u File: /fetools/work_area/frontend/nishashetty/ahb_avip_loc/src//hdlTop/masterAgentBFM/AhbMasterAssertion.sv Line: 107
# ** Error: Transition from BUSY to SEQ failed: Conditions not met!
#    Time: 165 ns Started: 165 ns  Scope: AhbMasterAssertionTb.ahbmasterassertions_u File: /fetools/work_area/frontend/nishashetty/ahb_avip_loc/src//hdlTop/masterAgentBFM/AhbMasterAssertion.sv Line: 149 Expr: htrans==1
# ** Info: HRESP is ERROR during error conditions
#    Time: 175 ns Started: 175 ns  Scope: AhbMasterAssertionTb.ahbmasterassertions_u File: /fetools/work_area/frontend/nishashetty/ahb_avip_loc/src//hdlTop/masterAgentBFM/AhbMasterAssertion.sv Line: 98
# ** Error: INCR burst type failed: Address not incremented correctly!
#    Time: 175 ns Started: 175 ns  Scope: AhbMasterAssertionTb.ahbmasterassertions_u File: /fetools/work_area/frontend/nishashetty/ahb_avip_loc/src//hdlTop/masterAgentBFM/AhbMasterAssertion.sv Line: 127 Expr: haddr==$past(haddr)+(1<<hsize)
# ** Info: HADDR is within the valid range
#    Time: 175 ns Started: 175 ns  Scope: AhbMasterAssertionTb.ahbmasterassertions_u File: /fetools/work_area/frontend/nishashetty/ahb_avip_loc/src//hdlTop/masterAgentBFM/AhbMasterAssertion.sv Line: 80
# ** Error: HRESP is not OKAY for a successful transfer!
#    Time: 175 ns Started: 175 ns  Scope: AhbMasterAssertionTb.ahbmasterassertions_u File: /fetools/work_area/frontend/nishashetty/ahb_avip_loc/src//hdlTop/masterAgentBFM/AhbMasterAssertion.sv Line: 90 Expr: ~hresp
# ** Info: HADDR is aligned based on HSIZE
#    Time: 175 ns Started: 175 ns  Scope: AhbMasterAssertionTb.ahbmasterassertions_u File: /fetools/work_area/frontend/nishashetty/ahb_avip_loc/src//hdlTop/masterAgentBFM/AhbMasterAssertion.sv Line: 71
# ** Info: HTRANS is Valid
#    Time: 175 ns Started: 175 ns  Scope: AhbMasterAssertionTb.ahbmasterassertions_u File: /fetools/work_area/frontend/nishashetty/ahb_avip_loc/src//hdlTop/masterAgentBFM/AhbMasterAssertion.sv Line: 60
# ** Error: Address changed before HREADY HIGH!
#    Time: 175 ns Started: 165 ns  Scope: AhbMasterAssertionTb.ahbmasterassertions_u File: /fetools/work_area/frontend/nishashetty/ahb_avip_loc/src//hdlTop/masterAgentBFM/AhbMasterAssertion.sv Line: 184 Expr: hready==0
# ** Info: HWDATA is Valid When HWRITE IS HIGH
#    Time: 175 ns Started: 175 ns  Scope: AhbMasterAssertionTb.ahbmasterassertions_u File: /fetools/work_area/frontend/nishashetty/ahb_avip_loc/src//hdlTop/masterAgentBFM/AhbMasterAssertion.sv Line: 51
# ** Info: HREADY remains stable during wait states
#    Time: 175 ns Started: 165 ns  Scope: AhbMasterAssertionTb.ahbmasterassertions_u File: /fetools/work_area/frontend/nishashetty/ahb_avip_loc/src//hdlTop/masterAgentBFM/AhbMasterAssertion.sv Line: 107
# ** Error: Transition from BUSY to SEQ failed: Conditions not met!
#    Time: 175 ns Started: 175 ns  Scope: AhbMasterAssertionTb.ahbmasterassertions_u File: /fetools/work_area/frontend/nishashetty/ahb_avip_loc/src//hdlTop/masterAgentBFM/AhbMasterAssertion.sv Line: 149 Expr: htrans==1
# UVM_INFO /fetools/work_area/frontend/nishashetty/ahb_avip_loc/src//hvlTop/tb/AhbMasterAssertionTb.sv(262) @ 185: reporter [AhbMasterAssertionTb] Ensure HRESP is ERROR (1) during successful transfers AssertionPass Task ended
# UVM_INFO /fetools/work_area/frontend/nishashetty/ahb_avip_loc/src//hvlTop/tb/AhbMasterAssertionTb.sv(269) @ 185: reporter [AhbMasterAssertionTb] Check for INCR (incrementing burst) AssertionPass Task started
# ** Error: Address changed before HREADY HIGH!
#    Time: 185 ns Started: 175 ns  Scope: AhbMasterAssertionTb.ahbmasterassertions_u File: /fetools/work_area/frontend/nishashetty/ahb_avip_loc/src//hdlTop/masterAgentBFM/AhbMasterAssertion.sv Line: 184 Expr: hready==0
# ** Error: Unexpected HRESP ERROR when transfer is IDLE!
#    Time: 185 ns Started: 185 ns  Scope: AhbMasterAssertionTb.ahbmasterassertions_u File: /fetools/work_area/frontend/nishashetty/ahb_avip_loc/src//hdlTop/masterAgentBFM/AhbMasterAssertion.sv Line: 99 Expr: htrans!=0
# ** Info: HREADY remains stable during wait states
#    Time: 185 ns Started: 175 ns  Scope: AhbMasterAssertionTb.ahbmasterassertions_u File: /fetools/work_area/frontend/nishashetty/ahb_avip_loc/src//hdlTop/masterAgentBFM/AhbMasterAssertion.sv Line: 107
# ** Error: Transition from BUSY to SEQ failed: Conditions not met!
#    Time: 185 ns Started: 185 ns  Scope: AhbMasterAssertionTb.ahbmasterassertions_u File: /fetools/work_area/frontend/nishashetty/ahb_avip_loc/src//hdlTop/masterAgentBFM/AhbMasterAssertion.sv Line: 149 Expr: htrans==1
# ** Error: Unexpected HRESP ERROR when transfer is IDLE!
#    Time: 195 ns Started: 195 ns  Scope: AhbMasterAssertionTb.ahbmasterassertions_u File: /fetools/work_area/frontend/nishashetty/ahb_avip_loc/src//hdlTop/masterAgentBFM/AhbMasterAssertion.sv Line: 99 Expr: htrans!=0
# ** Info: HREADY remains stable during wait states
#    Time: 195 ns Started: 185 ns  Scope: AhbMasterAssertionTb.ahbmasterassertions_u File: /fetools/work_area/frontend/nishashetty/ahb_avip_loc/src//hdlTop/masterAgentBFM/AhbMasterAssertion.sv Line: 107
# ** Error: Transition from BUSY to SEQ failed: Conditions not met!
#    Time: 195 ns Started: 195 ns  Scope: AhbMasterAssertionTb.ahbmasterassertions_u File: /fetools/work_area/frontend/nishashetty/ahb_avip_loc/src//hdlTop/masterAgentBFM/AhbMasterAssertion.sv Line: 149 Expr: htrans==1
# UVM_INFO /fetools/work_area/frontend/nishashetty/ahb_avip_loc/src//hvlTop/tb/AhbMasterAssertionTb.sv(278) @ 205: reporter [AhbMasterAssertionTb] Check for INCR (incrementing burst) AssertionPass Task ended
# UVM_INFO /fetools/work_area/frontend/nishashetty/ahb_avip_loc/src//hvlTop/tb/AhbMasterAssertionTb.sv(283) @ 205: reporter [AhbMasterAssertionTb] Check for INCR (incrementing burst) AssertionFail Task started
# ** Error: HRESP is not OKAY for a successful transfer!
#    Time: 205 ns Started: 205 ns  Scope: AhbMasterAssertionTb.ahbmasterassertions_u File: /fetools/work_area/frontend/nishashetty/ahb_avip_loc/src//hdlTop/masterAgentBFM/AhbMasterAssertion.sv Line: 90 Expr: ~hresp
# ** Info: HADDR is within the valid range
#    Time: 205 ns Started: 205 ns  Scope: AhbMasterAssertionTb.ahbmasterassertions_u File: /fetools/work_area/frontend/nishashetty/ahb_avip_loc/src//hdlTop/masterAgentBFM/AhbMasterAssertion.sv Line: 80
# ** Error: INCR burst type failed: Address not incremented correctly!
#    Time: 205 ns Started: 205 ns  Scope: AhbMasterAssertionTb.ahbmasterassertions_u File: /fetools/work_area/frontend/nishashetty/ahb_avip_loc/src//hdlTop/masterAgentBFM/AhbMasterAssertion.sv Line: 127 Expr: haddr==$past(haddr)+(1<<hsize)
# ** Info: HADDR is aligned based on HSIZE
#    Time: 205 ns Started: 205 ns  Scope: AhbMasterAssertionTb.ahbmasterassertions_u File: /fetools/work_area/frontend/nishashetty/ahb_avip_loc/src//hdlTop/masterAgentBFM/AhbMasterAssertion.sv Line: 71
# ** Info: HTRANS is Valid
#    Time: 205 ns Started: 205 ns  Scope: AhbMasterAssertionTb.ahbmasterassertions_u File: /fetools/work_area/frontend/nishashetty/ahb_avip_loc/src//hdlTop/masterAgentBFM/AhbMasterAssertion.sv Line: 60
# ** Info: HWDATA is Valid When HWRITE IS HIGH
#    Time: 205 ns Started: 205 ns  Scope: AhbMasterAssertionTb.ahbmasterassertions_u File: /fetools/work_area/frontend/nishashetty/ahb_avip_loc/src//hdlTop/masterAgentBFM/AhbMasterAssertion.sv Line: 51
# ** Info: HRESP is ERROR during error conditions
#    Time: 205 ns Started: 205 ns  Scope: AhbMasterAssertionTb.ahbmasterassertions_u File: /fetools/work_area/frontend/nishashetty/ahb_avip_loc/src//hdlTop/masterAgentBFM/AhbMasterAssertion.sv Line: 98
# ** Info: HREADY remains stable during wait states
#    Time: 205 ns Started: 195 ns  Scope: AhbMasterAssertionTb.ahbmasterassertions_u File: /fetools/work_area/frontend/nishashetty/ahb_avip_loc/src//hdlTop/masterAgentBFM/AhbMasterAssertion.sv Line: 107
# ** Error: Transition from BUSY to SEQ failed: Conditions not met!
#    Time: 205 ns Started: 205 ns  Scope: AhbMasterAssertionTb.ahbmasterassertions_u File: /fetools/work_area/frontend/nishashetty/ahb_avip_loc/src//hdlTop/masterAgentBFM/AhbMasterAssertion.sv Line: 149 Expr: htrans==1
# ** Error: HRESP is not OKAY for a successful transfer!
#    Time: 215 ns Started: 215 ns  Scope: AhbMasterAssertionTb.ahbmasterassertions_u File: /fetools/work_area/frontend/nishashetty/ahb_avip_loc/src//hdlTop/masterAgentBFM/AhbMasterAssertion.sv Line: 90 Expr: ~hresp
# ** Info: HADDR is within the valid range
#    Time: 215 ns Started: 215 ns  Scope: AhbMasterAssertionTb.ahbmasterassertions_u File: /fetools/work_area/frontend/nishashetty/ahb_avip_loc/src//hdlTop/masterAgentBFM/AhbMasterAssertion.sv Line: 80
# ** Error: INCR burst type failed: Address not incremented correctly!
#    Time: 215 ns Started: 215 ns  Scope: AhbMasterAssertionTb.ahbmasterassertions_u File: /fetools/work_area/frontend/nishashetty/ahb_avip_loc/src//hdlTop/masterAgentBFM/AhbMasterAssertion.sv Line: 127 Expr: haddr==$past(haddr)+(1<<hsize)
# ** Info: HADDR is aligned based on HSIZE
#    Time: 215 ns Started: 215 ns  Scope: AhbMasterAssertionTb.ahbmasterassertions_u File: /fetools/work_area/frontend/nishashetty/ahb_avip_loc/src//hdlTop/masterAgentBFM/AhbMasterAssertion.sv Line: 71
# ** Info: HTRANS is Valid
#    Time: 215 ns Started: 215 ns  Scope: AhbMasterAssertionTb.ahbmasterassertions_u File: /fetools/work_area/frontend/nishashetty/ahb_avip_loc/src//hdlTop/masterAgentBFM/AhbMasterAssertion.sv Line: 60
# ** Info: HWDATA is Valid When HWRITE IS HIGH
#    Time: 215 ns Started: 215 ns  Scope: AhbMasterAssertionTb.ahbmasterassertions_u File: /fetools/work_area/frontend/nishashetty/ahb_avip_loc/src//hdlTop/masterAgentBFM/AhbMasterAssertion.sv Line: 51
# ** Error: Address changed before HREADY HIGH!
#    Time: 215 ns Started: 205 ns  Scope: AhbMasterAssertionTb.ahbmasterassertions_u File: /fetools/work_area/frontend/nishashetty/ahb_avip_loc/src//hdlTop/masterAgentBFM/AhbMasterAssertion.sv Line: 184 Expr: hready==0
# ** Info: HRESP is ERROR during error conditions
#    Time: 215 ns Started: 215 ns  Scope: AhbMasterAssertionTb.ahbmasterassertions_u File: /fetools/work_area/frontend/nishashetty/ahb_avip_loc/src//hdlTop/masterAgentBFM/AhbMasterAssertion.sv Line: 98
# ** Info: HREADY remains stable during wait states
#    Time: 215 ns Started: 205 ns  Scope: AhbMasterAssertionTb.ahbmasterassertions_u File: /fetools/work_area/frontend/nishashetty/ahb_avip_loc/src//hdlTop/masterAgentBFM/AhbMasterAssertion.sv Line: 107
# ** Error: Transition from BUSY to SEQ failed: Conditions not met!
#    Time: 215 ns Started: 215 ns  Scope: AhbMasterAssertionTb.ahbmasterassertions_u File: /fetools/work_area/frontend/nishashetty/ahb_avip_loc/src//hdlTop/masterAgentBFM/AhbMasterAssertion.sv Line: 149 Expr: htrans==1
# UVM_INFO /fetools/work_area/frontend/nishashetty/ahb_avip_loc/src//hvlTop/tb/AhbMasterAssertionTb.sv(292) @ 225: reporter [AhbMasterAssertionTb] Check for INCR (incrementing burst) AssertionFail Task ended
# UVM_INFO /fetools/work_area/frontend/nishashetty/ahb_avip_loc/src//hvlTop/tb/AhbMasterAssertionTb.sv(307) @ 225: reporter [AhbMasterAssertionTb] Ensure HREADY remains stable during wait states Assertion Pass Task started
# ** Error: HRESP is not OKAY for a successful transfer!
#    Time: 225 ns Started: 225 ns  Scope: AhbMasterAssertionTb.ahbmasterassertions_u File: /fetools/work_area/frontend/nishashetty/ahb_avip_loc/src//hdlTop/masterAgentBFM/AhbMasterAssertion.sv Line: 90 Expr: ~hresp
# ** Info: HADDR is within the valid range
#    Time: 225 ns Started: 225 ns  Scope: AhbMasterAssertionTb.ahbmasterassertions_u File: /fetools/work_area/frontend/nishashetty/ahb_avip_loc/src//hdlTop/masterAgentBFM/AhbMasterAssertion.sv Line: 80
# ** Error: INCR burst type failed: Address not incremented correctly!
#    Time: 225 ns Started: 225 ns  Scope: AhbMasterAssertionTb.ahbmasterassertions_u File: /fetools/work_area/frontend/nishashetty/ahb_avip_loc/src//hdlTop/masterAgentBFM/AhbMasterAssertion.sv Line: 127 Expr: haddr==$past(haddr)+(1<<hsize)
# ** Error: HADDR is not aligned based on HSIZE!
#    Time: 225 ns Started: 225 ns  Scope: AhbMasterAssertionTb.ahbmasterassertions_u File: /fetools/work_area/frontend/nishashetty/ahb_avip_loc/src//hdlTop/masterAgentBFM/AhbMasterAssertion.sv Line: 72 Expr: hsize==2
# ** Info: HTRANS is Valid
#    Time: 225 ns Started: 225 ns  Scope: AhbMasterAssertionTb.ahbmasterassertions_u File: /fetools/work_area/frontend/nishashetty/ahb_avip_loc/src//hdlTop/masterAgentBFM/AhbMasterAssertion.sv Line: 60
# ** Info: HWDATA is Valid When HWRITE IS HIGH
#    Time: 225 ns Started: 225 ns  Scope: AhbMasterAssertionTb.ahbmasterassertions_u File: /fetools/work_area/frontend/nishashetty/ahb_avip_loc/src//hdlTop/masterAgentBFM/AhbMasterAssertion.sv Line: 51
# ** Error: Address changed before HREADY HIGH!
#    Time: 225 ns Started: 215 ns  Scope: AhbMasterAssertionTb.ahbmasterassertions_u File: /fetools/work_area/frontend/nishashetty/ahb_avip_loc/src//hdlTop/masterAgentBFM/AhbMasterAssertion.sv Line: 184 Expr: $stable(haddr)
# ** Info: HRESP is ERROR during error conditions
#    Time: 225 ns Started: 225 ns  Scope: AhbMasterAssertionTb.ahbmasterassertions_u File: /fetools/work_area/frontend/nishashetty/ahb_avip_loc/src//hdlTop/masterAgentBFM/AhbMasterAssertion.sv Line: 98
# ** Info: HREADY remains stable during wait states
#    Time: 225 ns Started: 215 ns  Scope: AhbMasterAssertionTb.ahbmasterassertions_u File: /fetools/work_area/frontend/nishashetty/ahb_avip_loc/src//hdlTop/masterAgentBFM/AhbMasterAssertion.sv Line: 107
# ** Error: Transition from BUSY to SEQ failed: Conditions not met!
#    Time: 225 ns Started: 225 ns  Scope: AhbMasterAssertionTb.ahbmasterassertions_u File: /fetools/work_area/frontend/nishashetty/ahb_avip_loc/src//hdlTop/masterAgentBFM/AhbMasterAssertion.sv Line: 149 Expr: htrans==1
# ** Error: HRESP is not OKAY for a successful transfer!
#    Time: 235 ns Started: 235 ns  Scope: AhbMasterAssertionTb.ahbmasterassertions_u File: /fetools/work_area/frontend/nishashetty/ahb_avip_loc/src//hdlTop/masterAgentBFM/AhbMasterAssertion.sv Line: 90 Expr: ~hresp
# ** Info: HADDR is within the valid range
#    Time: 235 ns Started: 235 ns  Scope: AhbMasterAssertionTb.ahbmasterassertions_u File: /fetools/work_area/frontend/nishashetty/ahb_avip_loc/src//hdlTop/masterAgentBFM/AhbMasterAssertion.sv Line: 80
# ** Error: INCR burst type failed: Address not incremented correctly!
#    Time: 235 ns Started: 235 ns  Scope: AhbMasterAssertionTb.ahbmasterassertions_u File: /fetools/work_area/frontend/nishashetty/ahb_avip_loc/src//hdlTop/masterAgentBFM/AhbMasterAssertion.sv Line: 127 Expr: haddr==$past(haddr)+(1<<hsize)
# ** Error: HADDR is not aligned based on HSIZE!
#    Time: 235 ns Started: 235 ns  Scope: AhbMasterAssertionTb.ahbmasterassertions_u File: /fetools/work_area/frontend/nishashetty/ahb_avip_loc/src//hdlTop/masterAgentBFM/AhbMasterAssertion.sv Line: 72 Expr: hsize==2
# ** Info: HTRANS is Valid
#    Time: 235 ns Started: 235 ns  Scope: AhbMasterAssertionTb.ahbmasterassertions_u File: /fetools/work_area/frontend/nishashetty/ahb_avip_loc/src//hdlTop/masterAgentBFM/AhbMasterAssertion.sv Line: 60
# ** Info: HWDATA is Valid When HWRITE IS HIGH
#    Time: 235 ns Started: 235 ns  Scope: AhbMasterAssertionTb.ahbmasterassertions_u File: /fetools/work_area/frontend/nishashetty/ahb_avip_loc/src//hdlTop/masterAgentBFM/AhbMasterAssertion.sv Line: 51
# ** Error: Address changed before HREADY HIGH!
#    Time: 235 ns Started: 225 ns  Scope: AhbMasterAssertionTb.ahbmasterassertions_u File: /fetools/work_area/frontend/nishashetty/ahb_avip_loc/src//hdlTop/masterAgentBFM/AhbMasterAssertion.sv Line: 184 Expr: hready==0
# ** Info: HRESP is ERROR during error conditions
#    Time: 235 ns Started: 235 ns  Scope: AhbMasterAssertionTb.ahbmasterassertions_u File: /fetools/work_area/frontend/nishashetty/ahb_avip_loc/src//hdlTop/masterAgentBFM/AhbMasterAssertion.sv Line: 98
# ** Info: HREADY remains stable during wait states
#    Time: 235 ns Started: 225 ns  Scope: AhbMasterAssertionTb.ahbmasterassertions_u File: /fetools/work_area/frontend/nishashetty/ahb_avip_loc/src//hdlTop/masterAgentBFM/AhbMasterAssertion.sv Line: 107
# ** Error: Transition from BUSY to SEQ failed: Conditions not met!
#    Time: 235 ns Started: 235 ns  Scope: AhbMasterAssertionTb.ahbmasterassertions_u File: /fetools/work_area/frontend/nishashetty/ahb_avip_loc/src//hdlTop/masterAgentBFM/AhbMasterAssertion.sv Line: 149 Expr: htrans==1
# UVM_INFO /fetools/work_area/frontend/nishashetty/ahb_avip_loc/src//hvlTop/tb/AhbMasterAssertionTb.sv(313) @ 245: reporter [AhbMasterAssertionTb] Ensure HREADY remains stable during wait states Assertion Pass Task ended
# UVM_INFO /fetools/work_area/frontend/nishashetty/ahb_avip_loc/src//hvlTop/tb/AhbMasterAssertionTb.sv(318) @ 245: reporter [AhbMasterAssertionTb] Ensure HREADY remains stable during wait states Assertion Fail Task started
# ** Info: Address stability during waited transfer verified.
#    Time: 245 ns Started: 235 ns  Scope: AhbMasterAssertionTb.ahbmasterassertions_u File: /fetools/work_area/frontend/nishashetty/ahb_avip_loc/src//hdlTop/masterAgentBFM/AhbMasterAssertion.sv Line: 183
# ** Error: HTRANS has an invalid value or transition!
#    Time: 245 ns Started: 245 ns  Scope: AhbMasterAssertionTb.ahbmasterassertions_u File: /fetools/work_area/frontend/nishashetty/ahb_avip_loc/src//hdlTop/masterAgentBFM/AhbMasterAssertion.sv Line: 61 Expr: hready
# ** Error: INCR burst type failed: Address not incremented correctly!
#    Time: 245 ns Started: 245 ns  Scope: AhbMasterAssertionTb.ahbmasterassertions_u File: /fetools/work_area/frontend/nishashetty/ahb_avip_loc/src//hdlTop/masterAgentBFM/AhbMasterAssertion.sv Line: 127 Expr: haddr==$past(haddr)+(1<<hsize)
# ** Error: HREADY unexpectedly changed when slave was not ready!
#    Time: 245 ns Started: 235 ns  Scope: AhbMasterAssertionTb.ahbmasterassertions_u File: /fetools/work_area/frontend/nishashetty/ahb_avip_loc/src//hdlTop/masterAgentBFM/AhbMasterAssertion.sv Line: 108 Expr: hready
# ** Error: Transition from BUSY to SEQ failed: Conditions not met!
#    Time: 245 ns Started: 245 ns  Scope: AhbMasterAssertionTb.ahbmasterassertions_u File: /fetools/work_area/frontend/nishashetty/ahb_avip_loc/src//hdlTop/masterAgentBFM/AhbMasterAssertion.sv Line: 149 Expr: htrans==1
# ** Error: HRESP is not OKAY for a successful transfer!
#    Time: 255 ns Started: 255 ns  Scope: AhbMasterAssertionTb.ahbmasterassertions_u File: /fetools/work_area/frontend/nishashetty/ahb_avip_loc/src//hdlTop/masterAgentBFM/AhbMasterAssertion.sv Line: 90 Expr: ~hresp
# ** Info: HRESP is ERROR during error conditions
#    Time: 255 ns Started: 255 ns  Scope: AhbMasterAssertionTb.ahbmasterassertions_u File: /fetools/work_area/frontend/nishashetty/ahb_avip_loc/src//hdlTop/masterAgentBFM/AhbMasterAssertion.sv Line: 98
# ** Info: HADDR is within the valid range
#    Time: 255 ns Started: 255 ns  Scope: AhbMasterAssertionTb.ahbmasterassertions_u File: /fetools/work_area/frontend/nishashetty/ahb_avip_loc/src//hdlTop/masterAgentBFM/AhbMasterAssertion.sv Line: 80
# ** Error: HADDR is not aligned based on HSIZE!
#    Time: 255 ns Started: 255 ns  Scope: AhbMasterAssertionTb.ahbmasterassertions_u File: /fetools/work_area/frontend/nishashetty/ahb_avip_loc/src//hdlTop/masterAgentBFM/AhbMasterAssertion.sv Line: 72 Expr: hsize==2
# ** Info: HWDATA is Valid When HWRITE IS HIGH
#    Time: 255 ns Started: 255 ns  Scope: AhbMasterAssertionTb.ahbmasterassertions_u File: /fetools/work_area/frontend/nishashetty/ahb_avip_loc/src//hdlTop/masterAgentBFM/AhbMasterAssertion.sv Line: 51
# ** Error: Address changed before HREADY HIGH!
#    Time: 255 ns Started: 245 ns  Scope: AhbMasterAssertionTb.ahbmasterassertions_u File: /fetools/work_area/frontend/nishashetty/ahb_avip_loc/src//hdlTop/masterAgentBFM/AhbMasterAssertion.sv Line: 184 Expr: hready==0
# ** Info: HTRANS is Valid
#    Time: 255 ns Started: 255 ns  Scope: AhbMasterAssertionTb.ahbmasterassertions_u File: /fetools/work_area/frontend/nishashetty/ahb_avip_loc/src//hdlTop/masterAgentBFM/AhbMasterAssertion.sv Line: 60
# ** Error: INCR burst type failed: Address not incremented correctly!
#    Time: 255 ns Started: 255 ns  Scope: AhbMasterAssertionTb.ahbmasterassertions_u File: /fetools/work_area/frontend/nishashetty/ahb_avip_loc/src//hdlTop/masterAgentBFM/AhbMasterAssertion.sv Line: 127 Expr: haddr==$past(haddr)+(1<<hsize)
# ** Error: Transition from BUSY to SEQ failed: Conditions not met!
#    Time: 255 ns Started: 255 ns  Scope: AhbMasterAssertionTb.ahbmasterassertions_u File: /fetools/work_area/frontend/nishashetty/ahb_avip_loc/src//hdlTop/masterAgentBFM/AhbMasterAssertion.sv Line: 149 Expr: htrans==1
# UVM_INFO /fetools/work_area/frontend/nishashetty/ahb_avip_loc/src//hvlTop/tb/AhbMasterAssertionTb.sv(324) @ 265: reporter [AhbMasterAssertionTb] Ensure HREADY remains stable during wait states Assertion Fail Task ended
# UVM_INFO /fetools/work_area/frontend/nishashetty/ahb_avip_loc/src//hvlTop/tb/AhbMasterAssertionTb.sv(330) @ 265: reporter [AhbMasterAssertionTb]  Ensure HMASTLOCK is asserted correctly during locked transfers Assertion Pass Task started
# ** Error: HREADY unexpectedly changed when slave was not ready!
#    Time: 265 ns Started: 255 ns  Scope: AhbMasterAssertionTb.ahbmasterassertions_u File: /fetools/work_area/frontend/nishashetty/ahb_avip_loc/src//hdlTop/masterAgentBFM/AhbMasterAssertion.sv Line: 108 Expr: hready
# ** Info: Address stability during waited transfer verified.
#    Time: 265 ns Started: 255 ns  Scope: AhbMasterAssertionTb.ahbmasterassertions_u File: /fetools/work_area/frontend/nishashetty/ahb_avip_loc/src//hdlTop/masterAgentBFM/AhbMasterAssertion.sv Line: 183
# ** Error: HTRANS has an invalid value or transition!
#    Time: 265 ns Started: 265 ns  Scope: AhbMasterAssertionTb.ahbmasterassertions_u File: /fetools/work_area/frontend/nishashetty/ahb_avip_loc/src//hdlTop/masterAgentBFM/AhbMasterAssertion.sv Line: 61 Expr: hready
# ** Error: INCR burst type failed: Address not incremented correctly!
#    Time: 265 ns Started: 265 ns  Scope: AhbMasterAssertionTb.ahbmasterassertions_u File: /fetools/work_area/frontend/nishashetty/ahb_avip_loc/src//hdlTop/masterAgentBFM/AhbMasterAssertion.sv Line: 127 Expr: haddr==$past(haddr)+(1<<hsize)
# ** Error: Transition from BUSY to SEQ failed: Conditions not met!
#    Time: 265 ns Started: 265 ns  Scope: AhbMasterAssertionTb.ahbmasterassertions_u File: /fetools/work_area/frontend/nishashetty/ahb_avip_loc/src//hdlTop/masterAgentBFM/AhbMasterAssertion.sv Line: 149 Expr: htrans==1
# ** Info: Address stability during waited transfer verified.
#    Time: 275 ns Started: 265 ns  Scope: AhbMasterAssertionTb.ahbmasterassertions_u File: /fetools/work_area/frontend/nishashetty/ahb_avip_loc/src//hdlTop/masterAgentBFM/AhbMasterAssertion.sv Line: 183
# ** Error: HTRANS has an invalid value or transition!
#    Time: 275 ns Started: 275 ns  Scope: AhbMasterAssertionTb.ahbmasterassertions_u File: /fetools/work_area/frontend/nishashetty/ahb_avip_loc/src//hdlTop/masterAgentBFM/AhbMasterAssertion.sv Line: 61 Expr: hready
# ** Error: INCR burst type failed: Address not incremented correctly!
#    Time: 275 ns Started: 275 ns  Scope: AhbMasterAssertionTb.ahbmasterassertions_u File: /fetools/work_area/frontend/nishashetty/ahb_avip_loc/src//hdlTop/masterAgentBFM/AhbMasterAssertion.sv Line: 127 Expr: haddr==$past(haddr)+(1<<hsize)
# ** Error: Transition from BUSY to SEQ failed: Conditions not met!
#    Time: 275 ns Started: 275 ns  Scope: AhbMasterAssertionTb.ahbmasterassertions_u File: /fetools/work_area/frontend/nishashetty/ahb_avip_loc/src//hdlTop/masterAgentBFM/AhbMasterAssertion.sv Line: 149 Expr: htrans==1
# UVM_INFO /fetools/work_area/frontend/nishashetty/ahb_avip_loc/src//hvlTop/tb/AhbMasterAssertionTb.sv(338) @ 285: reporter [AhbMasterAssertionTb]  Ensure HMASTLOCK is asserted correctly during locked transfers Assertion Pass Task ended
# UVM_INFO /fetools/work_area/frontend/nishashetty/ahb_avip_loc/src//hvlTop/tb/AhbMasterAssertionTb.sv(343) @ 285: reporter [AhbMasterAssertionTb]  Ensure HMASTLOCK is asserted correctly during locked transfers Assertion Fail Task started
# ** Info: HADDR is within the valid range
#    Time: 285 ns Started: 285 ns  Scope: AhbMasterAssertionTb.ahbmasterassertions_u File: /fetools/work_area/frontend/nishashetty/ahb_avip_loc/src//hdlTop/masterAgentBFM/AhbMasterAssertion.sv Line: 80
# ** Error: HRESP is not OKAY for a successful transfer!
#    Time: 285 ns Started: 285 ns  Scope: AhbMasterAssertionTb.ahbmasterassertions_u File: /fetools/work_area/frontend/nishashetty/ahb_avip_loc/src//hdlTop/masterAgentBFM/AhbMasterAssertion.sv Line: 90 Expr: ~hresp
# ** Info: HRESP is ERROR during error conditions
#    Time: 285 ns Started: 285 ns  Scope: AhbMasterAssertionTb.ahbmasterassertions_u File: /fetools/work_area/frontend/nishashetty/ahb_avip_loc/src//hdlTop/masterAgentBFM/AhbMasterAssertion.sv Line: 98
# ** Info: HMASTLOCK is asserted during a locked transfer
#    Time: 285 ns Started: 285 ns  Scope: AhbMasterAssertionTb.ahbmasterassertions_u File: /fetools/work_area/frontend/nishashetty/ahb_avip_loc/src//hdlTop/masterAgentBFM/AhbMasterAssertion.sv Line: 116
# ** Info: HADDR is aligned based on HSIZE
#    Time: 285 ns Started: 285 ns  Scope: AhbMasterAssertionTb.ahbmasterassertions_u File: /fetools/work_area/frontend/nishashetty/ahb_avip_loc/src//hdlTop/masterAgentBFM/AhbMasterAssertion.sv Line: 71
# ** Info: HWDATA is Valid When HWRITE IS HIGH
#    Time: 285 ns Started: 285 ns  Scope: AhbMasterAssertionTb.ahbmasterassertions_u File: /fetools/work_area/frontend/nishashetty/ahb_avip_loc/src//hdlTop/masterAgentBFM/AhbMasterAssertion.sv Line: 51
# ** Error: Address changed before HREADY HIGH!
#    Time: 285 ns Started: 275 ns  Scope: AhbMasterAssertionTb.ahbmasterassertions_u File: /fetools/work_area/frontend/nishashetty/ahb_avip_loc/src//hdlTop/masterAgentBFM/AhbMasterAssertion.sv Line: 184 Expr: $stable(haddr)
# ** Info: HTRANS is Valid
#    Time: 285 ns Started: 285 ns  Scope: AhbMasterAssertionTb.ahbmasterassertions_u File: /fetools/work_area/frontend/nishashetty/ahb_avip_loc/src//hdlTop/masterAgentBFM/AhbMasterAssertion.sv Line: 60
# ** Error: INCR burst type failed: Address not incremented correctly!
#    Time: 285 ns Started: 285 ns  Scope: AhbMasterAssertionTb.ahbmasterassertions_u File: /fetools/work_area/frontend/nishashetty/ahb_avip_loc/src//hdlTop/masterAgentBFM/AhbMasterAssertion.sv Line: 127 Expr: haddr==$past(haddr)+(1<<hsize)
# ** Error: Transition from BUSY to SEQ failed: Conditions not met!
#    Time: 285 ns Started: 285 ns  Scope: AhbMasterAssertionTb.ahbmasterassertions_u File: /fetools/work_area/frontend/nishashetty/ahb_avip_loc/src//hdlTop/masterAgentBFM/AhbMasterAssertion.sv Line: 149 Expr: htrans==1
# ** Info: HADDR is within the valid range
#    Time: 295 ns Started: 295 ns  Scope: AhbMasterAssertionTb.ahbmasterassertions_u File: /fetools/work_area/frontend/nishashetty/ahb_avip_loc/src//hdlTop/masterAgentBFM/AhbMasterAssertion.sv Line: 80
# ** Error: HRESP is not OKAY for a successful transfer!
#    Time: 295 ns Started: 295 ns  Scope: AhbMasterAssertionTb.ahbmasterassertions_u File: /fetools/work_area/frontend/nishashetty/ahb_avip_loc/src//hdlTop/masterAgentBFM/AhbMasterAssertion.sv Line: 90 Expr: ~hresp
# ** Info: HRESP is ERROR during error conditions
#    Time: 295 ns Started: 295 ns  Scope: AhbMasterAssertionTb.ahbmasterassertions_u File: /fetools/work_area/frontend/nishashetty/ahb_avip_loc/src//hdlTop/masterAgentBFM/AhbMasterAssertion.sv Line: 98
# ** Info: HREADY remains stable during wait states
#    Time: 295 ns Started: 285 ns  Scope: AhbMasterAssertionTb.ahbmasterassertions_u File: /fetools/work_area/frontend/nishashetty/ahb_avip_loc/src//hdlTop/masterAgentBFM/AhbMasterAssertion.sv Line: 107
# ** Info: HMASTLOCK is asserted during a locked transfer
#    Time: 295 ns Started: 295 ns  Scope: AhbMasterAssertionTb.ahbmasterassertions_u File: /fetools/work_area/frontend/nishashetty/ahb_avip_loc/src//hdlTop/masterAgentBFM/AhbMasterAssertion.sv Line: 116
# ** Info: HADDR is aligned based on HSIZE
#    Time: 295 ns Started: 295 ns  Scope: AhbMasterAssertionTb.ahbmasterassertions_u File: /fetools/work_area/frontend/nishashetty/ahb_avip_loc/src//hdlTop/masterAgentBFM/AhbMasterAssertion.sv Line: 71
# ** Info: HWDATA is Valid When HWRITE IS HIGH
#    Time: 295 ns Started: 295 ns  Scope: AhbMasterAssertionTb.ahbmasterassertions_u File: /fetools/work_area/frontend/nishashetty/ahb_avip_loc/src//hdlTop/masterAgentBFM/AhbMasterAssertion.sv Line: 51
# ** Error: Address changed before HREADY HIGH!
#    Time: 295 ns Started: 285 ns  Scope: AhbMasterAssertionTb.ahbmasterassertions_u File: /fetools/work_area/frontend/nishashetty/ahb_avip_loc/src//hdlTop/masterAgentBFM/AhbMasterAssertion.sv Line: 184 Expr: hready==0
# ** Info: HTRANS is Valid
#    Time: 295 ns Started: 295 ns  Scope: AhbMasterAssertionTb.ahbmasterassertions_u File: /fetools/work_area/frontend/nishashetty/ahb_avip_loc/src//hdlTop/masterAgentBFM/AhbMasterAssertion.sv Line: 60
# ** Error: INCR burst type failed: Address not incremented correctly!
#    Time: 295 ns Started: 295 ns  Scope: AhbMasterAssertionTb.ahbmasterassertions_u File: /fetools/work_area/frontend/nishashetty/ahb_avip_loc/src//hdlTop/masterAgentBFM/AhbMasterAssertion.sv Line: 127 Expr: haddr==$past(haddr)+(1<<hsize)
# ** Error: Transition from BUSY to SEQ failed: Conditions not met!
#    Time: 295 ns Started: 295 ns  Scope: AhbMasterAssertionTb.ahbmasterassertions_u File: /fetools/work_area/frontend/nishashetty/ahb_avip_loc/src//hdlTop/masterAgentBFM/AhbMasterAssertion.sv Line: 149 Expr: htrans==1
# ** Error: HRESP is not OKAY for a successful transfer!
#    Time: 305 ns Started: 305 ns  Scope: AhbMasterAssertionTb.ahbmasterassertions_u File: /fetools/work_area/frontend/nishashetty/ahb_avip_loc/src//hdlTop/masterAgentBFM/AhbMasterAssertion.sv Line: 90 Expr: ~hresp
# ** Info: HRESP is ERROR during error conditions
#    Time: 305 ns Started: 305 ns  Scope: AhbMasterAssertionTb.ahbmasterassertions_u File: /fetools/work_area/frontend/nishashetty/ahb_avip_loc/src//hdlTop/masterAgentBFM/AhbMasterAssertion.sv Line: 98
# ** Info: HREADY remains stable during wait states
#    Time: 305 ns Started: 295 ns  Scope: AhbMasterAssertionTb.ahbmasterassertions_u File: /fetools/work_area/frontend/nishashetty/ahb_avip_loc/src//hdlTop/masterAgentBFM/AhbMasterAssertion.sv Line: 107
# ** Info: HADDR is within the valid range
#    Time: 305 ns Started: 305 ns  Scope: AhbMasterAssertionTb.ahbmasterassertions_u File: /fetools/work_area/frontend/nishashetty/ahb_avip_loc/src//hdlTop/masterAgentBFM/AhbMasterAssertion.sv Line: 80
# ** Info: HADDR is aligned based on HSIZE
#    Time: 305 ns Started: 305 ns  Scope: AhbMasterAssertionTb.ahbmasterassertions_u File: /fetools/work_area/frontend/nishashetty/ahb_avip_loc/src//hdlTop/masterAgentBFM/AhbMasterAssertion.sv Line: 71
# ** Info: HWDATA is Valid When HWRITE IS HIGH
#    Time: 305 ns Started: 305 ns  Scope: AhbMasterAssertionTb.ahbmasterassertions_u File: /fetools/work_area/frontend/nishashetty/ahb_avip_loc/src//hdlTop/masterAgentBFM/AhbMasterAssertion.sv Line: 51
# ** Error: Address changed before HREADY HIGH!
#    Time: 305 ns Started: 295 ns  Scope: AhbMasterAssertionTb.ahbmasterassertions_u File: /fetools/work_area/frontend/nishashetty/ahb_avip_loc/src//hdlTop/masterAgentBFM/AhbMasterAssertion.sv Line: 184 Expr: hready==0
# ** Info: HTRANS is Valid
#    Time: 305 ns Started: 305 ns  Scope: AhbMasterAssertionTb.ahbmasterassertions_u File: /fetools/work_area/frontend/nishashetty/ahb_avip_loc/src//hdlTop/masterAgentBFM/AhbMasterAssertion.sv Line: 60
# ** Error: INCR burst type failed: Address not incremented correctly!
#    Time: 305 ns Started: 305 ns  Scope: AhbMasterAssertionTb.ahbmasterassertions_u File: /fetools/work_area/frontend/nishashetty/ahb_avip_loc/src//hdlTop/masterAgentBFM/AhbMasterAssertion.sv Line: 127 Expr: haddr==$past(haddr)+(1<<hsize)
# ** Error: Transition from BUSY to SEQ failed: Conditions not met!
#    Time: 305 ns Started: 305 ns  Scope: AhbMasterAssertionTb.ahbmasterassertions_u File: /fetools/work_area/frontend/nishashetty/ahb_avip_loc/src//hdlTop/masterAgentBFM/AhbMasterAssertion.sv Line: 149 Expr: htrans==1
# UVM_INFO /fetools/work_area/frontend/nishashetty/ahb_avip_loc/src//hvlTop/tb/AhbMasterAssertionTb.sv(353) @ 315: reporter [AhbMasterAssertionTb]  Ensure HMASTLOCK is asserted correctly during locked transfers Assertion Fail Task ended
# UVM_INFO /fetools/work_area/frontend/nishashetty/ahb_avip_loc/src//hvlTop/tb/AhbMasterAssertionTb.sv(362) @ 315: reporter [AhbMasterAssertionTb] Check for WRAP (wrapping burst) AssertionPass Task started
# ** Error: HRESP is not OKAY for a successful transfer!
#    Time: 315 ns Started: 315 ns  Scope: AhbMasterAssertionTb.ahbmasterassertions_u File: /fetools/work_area/frontend/nishashetty/ahb_avip_loc/src//hdlTop/masterAgentBFM/AhbMasterAssertion.sv Line: 90 Expr: ~hresp
# ** Info: HRESP is ERROR during error conditions
#    Time: 315 ns Started: 315 ns  Scope: AhbMasterAssertionTb.ahbmasterassertions_u File: /fetools/work_area/frontend/nishashetty/ahb_avip_loc/src//hdlTop/masterAgentBFM/AhbMasterAssertion.sv Line: 98
# ** Info: HREADY remains stable during wait states
#    Time: 315 ns Started: 305 ns  Scope: AhbMasterAssertionTb.ahbmasterassertions_u File: /fetools/work_area/frontend/nishashetty/ahb_avip_loc/src//hdlTop/masterAgentBFM/AhbMasterAssertion.sv Line: 107
# ** Info: HADDR is within the valid range
#    Time: 315 ns Started: 315 ns  Scope: AhbMasterAssertionTb.ahbmasterassertions_u File: /fetools/work_area/frontend/nishashetty/ahb_avip_loc/src//hdlTop/masterAgentBFM/AhbMasterAssertion.sv Line: 80
# ** Info: HADDR is aligned based on HSIZE
#    Time: 315 ns Started: 315 ns  Scope: AhbMasterAssertionTb.ahbmasterassertions_u File: /fetools/work_area/frontend/nishashetty/ahb_avip_loc/src//hdlTop/masterAgentBFM/AhbMasterAssertion.sv Line: 71
# ** Info: HWDATA is Valid When HWRITE IS HIGH
#    Time: 315 ns Started: 315 ns  Scope: AhbMasterAssertionTb.ahbmasterassertions_u File: /fetools/work_area/frontend/nishashetty/ahb_avip_loc/src//hdlTop/masterAgentBFM/AhbMasterAssertion.sv Line: 51
# ** Error: Address changed before HREADY HIGH!
#    Time: 315 ns Started: 305 ns  Scope: AhbMasterAssertionTb.ahbmasterassertions_u File: /fetools/work_area/frontend/nishashetty/ahb_avip_loc/src//hdlTop/masterAgentBFM/AhbMasterAssertion.sv Line: 184 Expr: hready==0
# ** Info: HTRANS is Valid
#    Time: 315 ns Started: 315 ns  Scope: AhbMasterAssertionTb.ahbmasterassertions_u File: /fetools/work_area/frontend/nishashetty/ahb_avip_loc/src//hdlTop/masterAgentBFM/AhbMasterAssertion.sv Line: 60
# ** Error: INCR burst type failed: Address not incremented correctly!
#    Time: 315 ns Started: 315 ns  Scope: AhbMasterAssertionTb.ahbmasterassertions_u File: /fetools/work_area/frontend/nishashetty/ahb_avip_loc/src//hdlTop/masterAgentBFM/AhbMasterAssertion.sv Line: 127 Expr: haddr==$past(haddr)+(1<<hsize)
# ** Error: Transition from BUSY to SEQ failed: Conditions not met!
#    Time: 315 ns Started: 315 ns  Scope: AhbMasterAssertionTb.ahbmasterassertions_u File: /fetools/work_area/frontend/nishashetty/ahb_avip_loc/src//hdlTop/masterAgentBFM/AhbMasterAssertion.sv Line: 149 Expr: htrans==1
# ** Error: HRESP is not OKAY for a successful transfer!
#    Time: 325 ns Started: 325 ns  Scope: AhbMasterAssertionTb.ahbmasterassertions_u File: /fetools/work_area/frontend/nishashetty/ahb_avip_loc/src//hdlTop/masterAgentBFM/AhbMasterAssertion.sv Line: 90 Expr: ~hresp
# ** Info: HRESP is ERROR during error conditions
#    Time: 325 ns Started: 325 ns  Scope: AhbMasterAssertionTb.ahbmasterassertions_u File: /fetools/work_area/frontend/nishashetty/ahb_avip_loc/src//hdlTop/masterAgentBFM/AhbMasterAssertion.sv Line: 98
# ** Info: HREADY remains stable during wait states
#    Time: 325 ns Started: 315 ns  Scope: AhbMasterAssertionTb.ahbmasterassertions_u File: /fetools/work_area/frontend/nishashetty/ahb_avip_loc/src//hdlTop/masterAgentBFM/AhbMasterAssertion.sv Line: 107
# ** Info: HADDR is within the valid range
#    Time: 325 ns Started: 325 ns  Scope: AhbMasterAssertionTb.ahbmasterassertions_u File: /fetools/work_area/frontend/nishashetty/ahb_avip_loc/src//hdlTop/masterAgentBFM/AhbMasterAssertion.sv Line: 80
# ** Info: HADDR is aligned based on HSIZE
#    Time: 325 ns Started: 325 ns  Scope: AhbMasterAssertionTb.ahbmasterassertions_u File: /fetools/work_area/frontend/nishashetty/ahb_avip_loc/src//hdlTop/masterAgentBFM/AhbMasterAssertion.sv Line: 71
# ** Info: HWDATA is Valid When HWRITE IS HIGH
#    Time: 325 ns Started: 325 ns  Scope: AhbMasterAssertionTb.ahbmasterassertions_u File: /fetools/work_area/frontend/nishashetty/ahb_avip_loc/src//hdlTop/masterAgentBFM/AhbMasterAssertion.sv Line: 51
# ** Error: Address changed before HREADY HIGH!
#    Time: 325 ns Started: 315 ns  Scope: AhbMasterAssertionTb.ahbmasterassertions_u File: /fetools/work_area/frontend/nishashetty/ahb_avip_loc/src//hdlTop/masterAgentBFM/AhbMasterAssertion.sv Line: 184 Expr: hready==0
# ** Info: HTRANS is Valid
#    Time: 325 ns Started: 325 ns  Scope: AhbMasterAssertionTb.ahbmasterassertions_u File: /fetools/work_area/frontend/nishashetty/ahb_avip_loc/src//hdlTop/masterAgentBFM/AhbMasterAssertion.sv Line: 60
# ** Error: INCR burst type failed: Address not incremented correctly!
#    Time: 325 ns Started: 325 ns  Scope: AhbMasterAssertionTb.ahbmasterassertions_u File: /fetools/work_area/frontend/nishashetty/ahb_avip_loc/src//hdlTop/masterAgentBFM/AhbMasterAssertion.sv Line: 127 Expr: haddr==$past(haddr)+(1<<hsize)
# ** Error: Transition from BUSY to SEQ failed: Conditions not met!
#    Time: 325 ns Started: 325 ns  Scope: AhbMasterAssertionTb.ahbmasterassertions_u File: /fetools/work_area/frontend/nishashetty/ahb_avip_loc/src//hdlTop/masterAgentBFM/AhbMasterAssertion.sv Line: 149 Expr: htrans==1
# UVM_INFO /fetools/work_area/frontend/nishashetty/ahb_avip_loc/src//hvlTop/tb/AhbMasterAssertionTb.sv(371) @ 335: reporter [AhbMasterAssertionTb] Check for WRAP (wrapping burst) AssertionPass Task ended
# UVM_INFO /fetools/work_area/frontend/nishashetty/ahb_avip_loc/src//hvlTop/tb/AhbMasterAssertionTb.sv(377) @ 335: reporter [AhbMasterAssertionTb] Check for WRAP (wrapping burst) AssertionFail Task started
# ** Error: HRESP is not OKAY for a successful transfer!
#    Time: 335 ns Started: 335 ns  Scope: AhbMasterAssertionTb.ahbmasterassertions_u File: /fetools/work_area/frontend/nishashetty/ahb_avip_loc/src//hdlTop/masterAgentBFM/AhbMasterAssertion.sv Line: 90 Expr: ~hresp
# ** Info: HRESP is ERROR during error conditions
#    Time: 335 ns Started: 335 ns  Scope: AhbMasterAssertionTb.ahbmasterassertions_u File: /fetools/work_area/frontend/nishashetty/ahb_avip_loc/src//hdlTop/masterAgentBFM/AhbMasterAssertion.sv Line: 98
# ** Info: HREADY remains stable during wait states
#    Time: 335 ns Started: 325 ns  Scope: AhbMasterAssertionTb.ahbmasterassertions_u File: /fetools/work_area/frontend/nishashetty/ahb_avip_loc/src//hdlTop/masterAgentBFM/AhbMasterAssertion.sv Line: 107
# ** Info: HADDR is within the valid range
#    Time: 335 ns Started: 335 ns  Scope: AhbMasterAssertionTb.ahbmasterassertions_u File: /fetools/work_area/frontend/nishashetty/ahb_avip_loc/src//hdlTop/masterAgentBFM/AhbMasterAssertion.sv Line: 80
# ** Info: HADDR is aligned based on HSIZE
#    Time: 335 ns Started: 335 ns  Scope: AhbMasterAssertionTb.ahbmasterassertions_u File: /fetools/work_area/frontend/nishashetty/ahb_avip_loc/src//hdlTop/masterAgentBFM/AhbMasterAssertion.sv Line: 71
# ** Info: HWDATA is Valid When HWRITE IS HIGH
#    Time: 335 ns Started: 335 ns  Scope: AhbMasterAssertionTb.ahbmasterassertions_u File: /fetools/work_area/frontend/nishashetty/ahb_avip_loc/src//hdlTop/masterAgentBFM/AhbMasterAssertion.sv Line: 51
# ** Error: Address changed before HREADY HIGH!
#    Time: 335 ns Started: 325 ns  Scope: AhbMasterAssertionTb.ahbmasterassertions_u File: /fetools/work_area/frontend/nishashetty/ahb_avip_loc/src//hdlTop/masterAgentBFM/AhbMasterAssertion.sv Line: 184 Expr: hready==0
# ** Info: HTRANS is Valid
#    Time: 335 ns Started: 335 ns  Scope: AhbMasterAssertionTb.ahbmasterassertions_u File: /fetools/work_area/frontend/nishashetty/ahb_avip_loc/src//hdlTop/masterAgentBFM/AhbMasterAssertion.sv Line: 60
# ** Info: WRAP burst type passed: Address wrapping is done correctly
#    Time: 335 ns Started: 335 ns  Scope: AhbMasterAssertionTb.ahbmasterassertions_u File: /fetools/work_area/frontend/nishashetty/ahb_avip_loc/src//hdlTop/masterAgentBFM/AhbMasterAssertion.sv Line: 137
# ** Error: Transition from BUSY to SEQ failed: Conditions not met!
#    Time: 335 ns Started: 335 ns  Scope: AhbMasterAssertionTb.ahbmasterassertions_u File: /fetools/work_area/frontend/nishashetty/ahb_avip_loc/src//hdlTop/masterAgentBFM/AhbMasterAssertion.sv Line: 149 Expr: htrans==1
# ** Error: HRESP is not OKAY for a successful transfer!
#    Time: 345 ns Started: 345 ns  Scope: AhbMasterAssertionTb.ahbmasterassertions_u File: /fetools/work_area/frontend/nishashetty/ahb_avip_loc/src//hdlTop/masterAgentBFM/AhbMasterAssertion.sv Line: 90 Expr: ~hresp
# ** Info: HRESP is ERROR during error conditions
#    Time: 345 ns Started: 345 ns  Scope: AhbMasterAssertionTb.ahbmasterassertions_u File: /fetools/work_area/frontend/nishashetty/ahb_avip_loc/src//hdlTop/masterAgentBFM/AhbMasterAssertion.sv Line: 98
# ** Info: HREADY remains stable during wait states
#    Time: 345 ns Started: 335 ns  Scope: AhbMasterAssertionTb.ahbmasterassertions_u File: /fetools/work_area/frontend/nishashetty/ahb_avip_loc/src//hdlTop/masterAgentBFM/AhbMasterAssertion.sv Line: 107
# ** Info: HADDR is within the valid range
#    Time: 345 ns Started: 345 ns  Scope: AhbMasterAssertionTb.ahbmasterassertions_u File: /fetools/work_area/frontend/nishashetty/ahb_avip_loc/src//hdlTop/masterAgentBFM/AhbMasterAssertion.sv Line: 80
# ** Info: HADDR is aligned based on HSIZE
#    Time: 345 ns Started: 345 ns  Scope: AhbMasterAssertionTb.ahbmasterassertions_u File: /fetools/work_area/frontend/nishashetty/ahb_avip_loc/src//hdlTop/masterAgentBFM/AhbMasterAssertion.sv Line: 71
# ** Info: HWDATA is Valid When HWRITE IS HIGH
#    Time: 345 ns Started: 345 ns  Scope: AhbMasterAssertionTb.ahbmasterassertions_u File: /fetools/work_area/frontend/nishashetty/ahb_avip_loc/src//hdlTop/masterAgentBFM/AhbMasterAssertion.sv Line: 51
# ** Error: Address changed before HREADY HIGH!
#    Time: 345 ns Started: 335 ns  Scope: AhbMasterAssertionTb.ahbmasterassertions_u File: /fetools/work_area/frontend/nishashetty/ahb_avip_loc/src//hdlTop/masterAgentBFM/AhbMasterAssertion.sv Line: 184 Expr: hready==0
# ** Info: HTRANS is Valid
#    Time: 345 ns Started: 345 ns  Scope: AhbMasterAssertionTb.ahbmasterassertions_u File: /fetools/work_area/frontend/nishashetty/ahb_avip_loc/src//hdlTop/masterAgentBFM/AhbMasterAssertion.sv Line: 60
# ** Info: WRAP burst type passed: Address wrapping is done correctly
#    Time: 345 ns Started: 345 ns  Scope: AhbMasterAssertionTb.ahbmasterassertions_u File: /fetools/work_area/frontend/nishashetty/ahb_avip_loc/src//hdlTop/masterAgentBFM/AhbMasterAssertion.sv Line: 137
# ** Error: Transition from BUSY to SEQ failed: Conditions not met!
#    Time: 345 ns Started: 345 ns  Scope: AhbMasterAssertionTb.ahbmasterassertions_u File: /fetools/work_area/frontend/nishashetty/ahb_avip_loc/src//hdlTop/masterAgentBFM/AhbMasterAssertion.sv Line: 149 Expr: htrans==1
# UVM_INFO /fetools/work_area/frontend/nishashetty/ahb_avip_loc/src//hvlTop/tb/AhbMasterAssertionTb.sv(386) @ 355: reporter [AhbMasterAssertionTb] Check for WRAP (wrapping burst) AssertionPass Task ended
# UVM_INFO /fetools/work_area/frontend/nishashetty/ahb_avip_loc/src//hvlTop/tb/AhbMasterAssertionTb.sv(392) @ 355: reporter [AhbMasterAssertionTb]                  355 Check Trans Busy To Seq AssertionPass Task started
# ** Error: HRESP is not OKAY for a successful transfer!
#    Time: 355 ns Started: 355 ns  Scope: AhbMasterAssertionTb.ahbmasterassertions_u File: /fetools/work_area/frontend/nishashetty/ahb_avip_loc/src//hdlTop/masterAgentBFM/AhbMasterAssertion.sv Line: 90 Expr: ~hresp
# ** Info: HRESP is ERROR during error conditions
#    Time: 355 ns Started: 355 ns  Scope: AhbMasterAssertionTb.ahbmasterassertions_u File: /fetools/work_area/frontend/nishashetty/ahb_avip_loc/src//hdlTop/masterAgentBFM/AhbMasterAssertion.sv Line: 98
# ** Info: HREADY remains stable during wait states
#    Time: 355 ns Started: 345 ns  Scope: AhbMasterAssertionTb.ahbmasterassertions_u File: /fetools/work_area/frontend/nishashetty/ahb_avip_loc/src//hdlTop/masterAgentBFM/AhbMasterAssertion.sv Line: 107
# ** Info: HADDR is within the valid range
#    Time: 355 ns Started: 355 ns  Scope: AhbMasterAssertionTb.ahbmasterassertions_u File: /fetools/work_area/frontend/nishashetty/ahb_avip_loc/src//hdlTop/masterAgentBFM/AhbMasterAssertion.sv Line: 80
# ** Error: HADDR is not aligned based on HSIZE!
#    Time: 355 ns Started: 355 ns  Scope: AhbMasterAssertionTb.ahbmasterassertions_u File: /fetools/work_area/frontend/nishashetty/ahb_avip_loc/src//hdlTop/masterAgentBFM/AhbMasterAssertion.sv Line: 72 Expr: hsize==2
# ** Info: HWDATA is Valid When HWRITE IS HIGH
#    Time: 355 ns Started: 355 ns  Scope: AhbMasterAssertionTb.ahbmasterassertions_u File: /fetools/work_area/frontend/nishashetty/ahb_avip_loc/src//hdlTop/masterAgentBFM/AhbMasterAssertion.sv Line: 51
# ** Error: Address changed before HREADY HIGH!
#    Time: 355 ns Started: 345 ns  Scope: AhbMasterAssertionTb.ahbmasterassertions_u File: /fetools/work_area/frontend/nishashetty/ahb_avip_loc/src//hdlTop/masterAgentBFM/AhbMasterAssertion.sv Line: 184 Expr: $stable(haddr)
# ** Info: HTRANS is Valid
#    Time: 355 ns Started: 355 ns  Scope: AhbMasterAssertionTb.ahbmasterassertions_u File: /fetools/work_area/frontend/nishashetty/ahb_avip_loc/src//hdlTop/masterAgentBFM/AhbMasterAssertion.sv Line: 60
# ** Error: WRAP burst type failed: Address wrapping incorrect!
#    Time: 355 ns Started: 355 ns  Scope: AhbMasterAssertionTb.ahbmasterassertions_u File: /fetools/work_area/frontend/nishashetty/ahb_avip_loc/src//hdlTop/masterAgentBFM/AhbMasterAssertion.sv Line: 138 Expr: haddr==$past(haddr)+(1<<hsize)
# ** Error: Transition from BUSY to SEQ failed: Conditions not met!
#    Time: 355 ns Started: 355 ns  Scope: AhbMasterAssertionTb.ahbmasterassertions_u File: /fetools/work_area/frontend/nishashetty/ahb_avip_loc/src//hdlTop/masterAgentBFM/AhbMasterAssertion.sv Line: 149 Expr: htrans==1
# ** Error: HRESP is not OKAY for a successful transfer!
#    Time: 365 ns Started: 365 ns  Scope: AhbMasterAssertionTb.ahbmasterassertions_u File: /fetools/work_area/frontend/nishashetty/ahb_avip_loc/src//hdlTop/masterAgentBFM/AhbMasterAssertion.sv Line: 90 Expr: ~hresp
# ** Info: HRESP is ERROR during error conditions
#    Time: 365 ns Started: 365 ns  Scope: AhbMasterAssertionTb.ahbmasterassertions_u File: /fetools/work_area/frontend/nishashetty/ahb_avip_loc/src//hdlTop/masterAgentBFM/AhbMasterAssertion.sv Line: 98
# ** Info: HREADY remains stable during wait states
#    Time: 365 ns Started: 355 ns  Scope: AhbMasterAssertionTb.ahbmasterassertions_u File: /fetools/work_area/frontend/nishashetty/ahb_avip_loc/src//hdlTop/masterAgentBFM/AhbMasterAssertion.sv Line: 107
# ** Info: HADDR is within the valid range
#    Time: 365 ns Started: 365 ns  Scope: AhbMasterAssertionTb.ahbmasterassertions_u File: /fetools/work_area/frontend/nishashetty/ahb_avip_loc/src//hdlTop/masterAgentBFM/AhbMasterAssertion.sv Line: 80
# ** Error: HADDR is not aligned based on HSIZE!
#    Time: 365 ns Started: 365 ns  Scope: AhbMasterAssertionTb.ahbmasterassertions_u File: /fetools/work_area/frontend/nishashetty/ahb_avip_loc/src//hdlTop/masterAgentBFM/AhbMasterAssertion.sv Line: 72 Expr: hsize==2
# ** Info: HWDATA is Valid When HWRITE IS HIGH
#    Time: 365 ns Started: 365 ns  Scope: AhbMasterAssertionTb.ahbmasterassertions_u File: /fetools/work_area/frontend/nishashetty/ahb_avip_loc/src//hdlTop/masterAgentBFM/AhbMasterAssertion.sv Line: 51
# ** Error: Address changed before HREADY HIGH!
#    Time: 365 ns Started: 355 ns  Scope: AhbMasterAssertionTb.ahbmasterassertions_u File: /fetools/work_area/frontend/nishashetty/ahb_avip_loc/src//hdlTop/masterAgentBFM/AhbMasterAssertion.sv Line: 184 Expr: hready==0
# ** Info: HTRANS is Valid
#    Time: 365 ns Started: 365 ns  Scope: AhbMasterAssertionTb.ahbmasterassertions_u File: /fetools/work_area/frontend/nishashetty/ahb_avip_loc/src//hdlTop/masterAgentBFM/AhbMasterAssertion.sv Line: 60
# ** Error: WRAP burst type failed: Address wrapping incorrect!
#    Time: 365 ns Started: 365 ns  Scope: AhbMasterAssertionTb.ahbmasterassertions_u File: /fetools/work_area/frontend/nishashetty/ahb_avip_loc/src//hdlTop/masterAgentBFM/AhbMasterAssertion.sv Line: 138 Expr: haddr==$past(haddr)+(1<<hsize)
# ** Error: Transition from BUSY to SEQ failed: Conditions not met!
#    Time: 365 ns Started: 365 ns  Scope: AhbMasterAssertionTb.ahbmasterassertions_u File: /fetools/work_area/frontend/nishashetty/ahb_avip_loc/src//hdlTop/masterAgentBFM/AhbMasterAssertion.sv Line: 149 Expr: htrans==1
# ** Error: Address changed before HREADY HIGH!
#    Time: 375 ns Started: 365 ns  Scope: AhbMasterAssertionTb.ahbmasterassertions_u File: /fetools/work_area/frontend/nishashetty/ahb_avip_loc/src//hdlTop/masterAgentBFM/AhbMasterAssertion.sv Line: 184 Expr: $stable(haddr)
# ** Error: HREADY unexpectedly changed when slave was not ready!
#    Time: 375 ns Started: 365 ns  Scope: AhbMasterAssertionTb.ahbmasterassertions_u File: /fetools/work_area/frontend/nishashetty/ahb_avip_loc/src//hdlTop/masterAgentBFM/AhbMasterAssertion.sv Line: 108 Expr: hready
# UVM_INFO /fetools/work_area/frontend/nishashetty/ahb_avip_loc/src//hvlTop/tb/AhbMasterAssertionTb.sv(405) @ 385: reporter [AhbMasterAssertionTb]                  385 Check Trans Busy To Seq AssertionPass Task ended
# UVM_INFO /fetools/work_area/frontend/nishashetty/ahb_avip_loc/src//hvlTop/tb/AhbMasterAssertionTb.sv(410) @ 385: reporter [AhbMasterAssertionTb]                  385 Check Trans Busy To Seq AssertionFail Task started
# ** Error: HTRANS has an invalid value or transition!
#    Time: 385 ns Started: 385 ns  Scope: AhbMasterAssertionTb.ahbmasterassertions_u File: /fetools/work_area/frontend/nishashetty/ahb_avip_loc/src//hdlTop/masterAgentBFM/AhbMasterAssertion.sv Line: 61 Expr: hready
# ** Error: Transition from BUSY to SEQ failed: Conditions not met!
#    Time: 385 ns Started: 385 ns  Scope: AhbMasterAssertionTb.ahbmasterassertions_u File: /fetools/work_area/frontend/nishashetty/ahb_avip_loc/src//hdlTop/masterAgentBFM/AhbMasterAssertion.sv Line: 149 Expr: htrans==1
# ** Info: Transition from BUSY to SEQ passed
#    Time: 385 ns Started: 375 ns  Scope: AhbMasterAssertionTb.ahbmasterassertions_u File: /fetools/work_area/frontend/nishashetty/ahb_avip_loc/src//hdlTop/masterAgentBFM/AhbMasterAssertion.sv Line: 148
# ** Error: HTRANS has an invalid value or transition!
#    Time: 395 ns Started: 395 ns  Scope: AhbMasterAssertionTb.ahbmasterassertions_u File: /fetools/work_area/frontend/nishashetty/ahb_avip_loc/src//hdlTop/masterAgentBFM/AhbMasterAssertion.sv Line: 61 Expr: hready
# ** Info: Address stability during waited transfer verified.
#    Time: 395 ns Started: 385 ns  Scope: AhbMasterAssertionTb.ahbmasterassertions_u File: /fetools/work_area/frontend/nishashetty/ahb_avip_loc/src//hdlTop/masterAgentBFM/AhbMasterAssertion.sv Line: 183
# ** Error: Transition from BUSY to SEQ failed: Conditions not met!
#    Time: 395 ns Started: 395 ns  Scope: AhbMasterAssertionTb.ahbmasterassertions_u File: /fetools/work_area/frontend/nishashetty/ahb_avip_loc/src//hdlTop/masterAgentBFM/AhbMasterAssertion.sv Line: 149 Expr: htrans==1
# ** Info: Address stability during waited transfer verified.
#    Time: 405 ns Started: 395 ns  Scope: AhbMasterAssertionTb.ahbmasterassertions_u File: /fetools/work_area/frontend/nishashetty/ahb_avip_loc/src//hdlTop/masterAgentBFM/AhbMasterAssertion.sv Line: 183
# UVM_INFO /fetools/work_area/frontend/nishashetty/ahb_avip_loc/src//hvlTop/tb/AhbMasterAssertionTb.sv(423) @ 415: reporter [AhbMasterAssertionTb]                  415 Check Trans Busy To Seq AssertionFail Task ended
# UVM_INFO /fetools/work_area/frontend/nishashetty/ahb_avip_loc/src//hvlTop/tb/AhbMasterAssertionTb.sv(431) @ 415: reporter [AhbMasterAssertionTb]                  415 Check Trans Busy To Non-Seq AssertionPass Task started
# ** Error: HTRANS has an invalid value or transition!
#    Time: 415 ns Started: 415 ns  Scope: AhbMasterAssertionTb.ahbmasterassertions_u File: /fetools/work_area/frontend/nishashetty/ahb_avip_loc/src//hdlTop/masterAgentBFM/AhbMasterAssertion.sv Line: 61 Expr: hready
# ** Error: Transition from BUSY to SEQ failed: Conditions not met!
#    Time: 415 ns Started: 415 ns  Scope: AhbMasterAssertionTb.ahbmasterassertions_u File: /fetools/work_area/frontend/nishashetty/ahb_avip_loc/src//hdlTop/masterAgentBFM/AhbMasterAssertion.sv Line: 149 Expr: htrans==1
# ** Error: Transition from BUSY to SEQ failed: Conditions not met!
#    Time: 415 ns Started: 405 ns  Scope: AhbMasterAssertionTb.ahbmasterassertions_u File: /fetools/work_area/frontend/nishashetty/ahb_avip_loc/src//hdlTop/masterAgentBFM/AhbMasterAssertion.sv Line: 149 Expr: $stable(hburst)
# ** Error: HTRANS has an invalid value or transition!
#    Time: 425 ns Started: 425 ns  Scope: AhbMasterAssertionTb.ahbmasterassertions_u File: /fetools/work_area/frontend/nishashetty/ahb_avip_loc/src//hdlTop/masterAgentBFM/AhbMasterAssertion.sv Line: 61 Expr: hready
# ** Info: Address stability during waited transfer verified.
#    Time: 425 ns Started: 415 ns  Scope: AhbMasterAssertionTb.ahbmasterassertions_u File: /fetools/work_area/frontend/nishashetty/ahb_avip_loc/src//hdlTop/masterAgentBFM/AhbMasterAssertion.sv Line: 183
# ** Error: Transition from BUSY to SEQ failed: Conditions not met!
#    Time: 425 ns Started: 425 ns  Scope: AhbMasterAssertionTb.ahbmasterassertions_u File: /fetools/work_area/frontend/nishashetty/ahb_avip_loc/src//hdlTop/masterAgentBFM/AhbMasterAssertion.sv Line: 149 Expr: htrans==1
# ** Error: Address changed before HREADY HIGH!
#    Time: 435 ns Started: 425 ns  Scope: AhbMasterAssertionTb.ahbmasterassertions_u File: /fetools/work_area/frontend/nishashetty/ahb_avip_loc/src//hdlTop/masterAgentBFM/AhbMasterAssertion.sv Line: 184 Expr: $stable(haddr)
# ** Error: Transition from BUSY to SEQ failed: Conditions not met!
#    Time: 435 ns Started: 435 ns  Scope: AhbMasterAssertionTb.ahbmasterassertions_u File: /fetools/work_area/frontend/nishashetty/ahb_avip_loc/src//hdlTop/masterAgentBFM/AhbMasterAssertion.sv Line: 149 Expr: hburst inside {[2:7]}
# ** Error: HTRANS has an invalid value or transition!
#    Time: 445 ns Started: 445 ns  Scope: AhbMasterAssertionTb.ahbmasterassertions_u File: /fetools/work_area/frontend/nishashetty/ahb_avip_loc/src//hdlTop/masterAgentBFM/AhbMasterAssertion.sv Line: 61 Expr: hready
# ** Info: Transition from BUSY to NON - SEQ passed
#    Time: 445 ns Started: 435 ns  Scope: AhbMasterAssertionTb.ahbmasterassertions_u File: /fetools/work_area/frontend/nishashetty/ahb_avip_loc/src//hdlTop/masterAgentBFM/AhbMasterAssertion.sv Line: 160
# ** Error: Transition from BUSY to SEQ failed: Conditions not met!
#    Time: 445 ns Started: 445 ns  Scope: AhbMasterAssertionTb.ahbmasterassertions_u File: /fetools/work_area/frontend/nishashetty/ahb_avip_loc/src//hdlTop/masterAgentBFM/AhbMasterAssertion.sv Line: 149 Expr: htrans==1
# UVM_INFO /fetools/work_area/frontend/nishashetty/ahb_avip_loc/src//hvlTop/tb/AhbMasterAssertionTb.sv(444) @ 455: reporter [AhbMasterAssertionTb]                  455 Check Trans Busy To Non Seq AssertionPass Task ended
# UVM_INFO /fetools/work_area/frontend/nishashetty/ahb_avip_loc/src//hvlTop/tb/AhbMasterAssertionTb.sv(451) @ 455: reporter [AhbMasterAssertionTb]                  455 Check Trans Busy To Non-Seq AssertionFail Task started
# ** Info: Address stability during waited transfer verified.
#    Time: 455 ns Started: 445 ns  Scope: AhbMasterAssertionTb.ahbmasterassertions_u File: /fetools/work_area/frontend/nishashetty/ahb_avip_loc/src//hdlTop/masterAgentBFM/AhbMasterAssertion.sv Line: 183
# ** Error: HTRANS has an invalid value or transition!
#    Time: 455 ns Started: 455 ns  Scope: AhbMasterAssertionTb.ahbmasterassertions_u File: /fetools/work_area/frontend/nishashetty/ahb_avip_loc/src//hdlTop/masterAgentBFM/AhbMasterAssertion.sv Line: 61 Expr: hready
# ** Error: Transition from BUSY to SEQ failed: Conditions not met!
#    Time: 455 ns Started: 455 ns  Scope: AhbMasterAssertionTb.ahbmasterassertions_u File: /fetools/work_area/frontend/nishashetty/ahb_avip_loc/src//hdlTop/masterAgentBFM/AhbMasterAssertion.sv Line: 149 Expr: htrans==1
# ** Error: Address changed before HREADY HIGH!
#    Time: 465 ns Started: 455 ns  Scope: AhbMasterAssertionTb.ahbmasterassertions_u File: /fetools/work_area/frontend/nishashetty/ahb_avip_loc/src//hdlTop/masterAgentBFM/AhbMasterAssertion.sv Line: 184 Expr: $stable(haddr)
# ** Error: Transition from BUSY to SEQ failed: Conditions not met!
#    Time: 465 ns Started: 465 ns  Scope: AhbMasterAssertionTb.ahbmasterassertions_u File: /fetools/work_area/frontend/nishashetty/ahb_avip_loc/src//hdlTop/masterAgentBFM/AhbMasterAssertion.sv Line: 149 Expr: hburst inside {[2:7]}
# UVM_INFO /fetools/work_area/frontend/nishashetty/ahb_avip_loc/src//hvlTop/tb/AhbMasterAssertionTb.sv(463) @ 475: reporter [AhbMasterAssertionTb]                  475 Check Trans Busy To Non Seq AssertionFail Task ended
